13-277 spi-1: 34
1898-2163 spi-1: BE
3916-4180 spi-1: D6
5901-6165 spi-1: FF
7885-8150 spi-1: FA
9870-10136 spi-1: DF
11888-12152 spi-1: CF
13872-14137 spi-1: 3C
99545-99811 spi-1: 34
101530-101794 spi-1: BE
103547-103812 spi-1: D6
105532-105797 spi-1: FF
107517-107781 spi-1: FA
109502-109766 spi-1: DF
111519-111784 spi-1: CF
113504-113770 spi-1: 3C
199177-199441 spi-1: 34
201161-201426 spi-1: BE
203179-203445 spi-1: D6
205164-205428 spi-1: FF
207148-207413 spi-1: F9
209133-209398 spi-1: DF
211151-211415 spi-1: CF
213367-213632 spi-1: 3C
298808-299073 spi-1: 34
300793-301057 spi-1: BE
302811-303075 spi-1: D6
304795-305060 spi-1: FF
306846-307111 spi-1: F9
308765-309029 spi-1: DF
310782-311047 spi-1: CF
312767-313032 spi-1: 3C
398440-398704 spi-1: 34
400424-400689 spi-1: BE
402442-402707 spi-1: D6
404427-404691 spi-1: FF
406411-406676 spi-1: F9
408396-408661 spi-1: DF
410414-410680 spi-1: CF
412399-412663 spi-1: 3C
498071-498336 spi-1: 34
500056-500320 spi-1: BE
502074-502338 spi-1: D6
504058-504323 spi-1: FF
506076-506341 spi-1: F9
508028-508292 spi-1: DF
510045-510310 spi-1: CF
512163-512427 spi-1: 3C
597703-597967 spi-1: 34
599687-599952 spi-1: BE
601705-601970 spi-1: D6
603690-603954 spi-1: FF
605675-605939 spi-1: F9
607659-607924 spi-1: DF
609677-609942 spi-1: CF
611662-611926 spi-1: 3C
697334-697599 spi-1: 34
699319-699585 spi-1: BE
701337-701601 spi-1: D6
703321-703586 spi-1: FF
705306-705571 spi-1: F9
707291-707555 spi-1: DF
709309-709573 spi-1: CF
711293-711558 spi-1: 3C
796966-797230 spi-1: 34
798951-799215 spi-1: BE
801001-801266 spi-1: D6
802953-803219 spi-1: FF
804938-805202 spi-1: F9
806922-807187 spi-1: DF
808940-809205 spi-1: CF
810925-811189 spi-1: 3C
896597-896862 spi-1: 34
898913-899177 spi-1: BE
900600-900864 spi-1: D6
902585-902849 spi-1: FF
904569-904834 spi-1: F9
906554-906818 spi-1: DF
908572-908836 spi-1: CF
910556-910821 spi-1: 3C
998214-998478 spi-1: 34
1000231-1000496 spi-1: BE
1002216-1002481 spi-1: D6
1004201-1004465 spi-1: FF
1006185-1006450 spi-1: F9
1008203-1008468 spi-1: DF
1010188-1010452 spi-1: CF
1012173-1012437 spi-1: 3C
1095860-1096125 spi-1: 34
1097845-1098110 spi-1: BE
1099863-1100127 spi-1: D6
1101848-1102112 spi-1: FF
1103832-1104097 spi-1: F9
1105817-1106083 spi-1: DF
1107967-1108232 spi-1: CF
1109819-1110084 spi-1: 3C
1195492-1195758 spi-1: 34
1197477-1197741 spi-1: BE
1199494-1199759 spi-1: D6
1201479-1201744 spi-1: FF
1203464-1203728 spi-1: F9
1205449-1205713 spi-1: DF
1207466-1207731 spi-1: CF
1209451-1209717 spi-1: 3C
1297141-1297406 spi-1: 34
1299358-1299622 spi-1: BE
1301111-1301375 spi-1: D6
1303095-1303360 spi-1: FF
1305080-1305345 spi-1: F9
1307098-1307362 spi-1: DF
1309083-1309347 spi-1: CF
1311067-1311332 spi-1: 3C
1394755-1395020 spi-1: 34
1396740-1397004 spi-1: BE
1398758-1399022 spi-1: D6
1400742-1401007 spi-1: FF
1402727-1402991 spi-1: F9
1404745-1405009 spi-1: DF
1406729-1406994 spi-1: CF
1408714-1408979 spi-1: 3C
1494387-1494651 spi-1: 34
1496404-1496669 spi-1: BE
1498389-1498654 spi-1: D6
1500374-1500638 spi-1: FF
1502358-1502623 spi-1: F9
1504343-1504608 spi-1: DF
1506394-1506660 spi-1: CF
1508445-1508709 spi-1: 3C
1594018-1594283 spi-1: 34
1596003-1596267 spi-1: BE
1598021-1598285 spi-1: D6
1600005-1600270 spi-1: FF
1601990-1602256 spi-1: F9
1603975-1604239 spi-1: DF
1605992-1606257 spi-1: CF
1607977-1608242 spi-1: 3C
1693650-1693914 spi-1: 34
1695667-1695932 spi-1: BE
1697652-1697917 spi-1: D6
1699868-1700133 spi-1: FF
1701622-1701886 spi-1: F9
1703606-1703871 spi-1: DF
1705624-1705890 spi-1: CF
1707609-1707873 spi-1: 3C
1795299-1795565 spi-1: 34
1797284-1797548 spi-1: BE
1799268-1799533 spi-1: D6
1801319-1801584 spi-1: FF
1803271-1803535 spi-1: F9
1805256-1805520 spi-1: DF
1807240-1807505 spi-1: CF
1809225-1809489 spi-1: 3C
1892913-1893177 spi-1: 14
1894931-1895195 spi-1: BE
1896915-1897180 spi-1: D6
1898900-1899164 spi-1: FF
1900885-1901149 spi-1: F9
1902902-1903167 spi-1: DF
1904887-1905152 spi-1: CF
1906905-1907169 spi-1: 1C
1992544-1992809 spi-1: 34
1994562-1994827 spi-1: BE
1996547-1996811 spi-1: D6
1998531-1998796 spi-1: FF
2000516-2000781 spi-1: F9
2002567-2002833 spi-1: DF
2004519-2004783 spi-1: CF
2006503-2006768 spi-1: 3C
2092176-2092440 spi-1: 34
2094194-2094458 spi-1: BE
2096178-2096443 spi-1: D6
2098163-2098429 spi-1: FF
2100280-2100546 spi-1: F9
2102165-2102430 spi-1: DF
2104150-2104415 spi-1: CF
2106135-2106399 spi-1: 3C
2191807-2192072 spi-1: 34
2193825-2194090 spi-1: BE
2195810-2196074 spi-1: D6
2197795-2198059 spi-1: FF
2199779-2200044 spi-1: F9
2201797-2202063 spi-1: DF
2203782-2204046 spi-1: CF
2205766-2206031 spi-1: 3C
2291439-2291703 spi-1: 14
2293457-2293721 spi-1: BE
2295441-2295706 spi-1: D6
2297426-2297691 spi-1: FF
2299411-2299675 spi-1: F8
2301428-2301693 spi-1: DF
2303413-2303678 spi-1: CF
2305398-2305662 spi-1: 1C
2391070-2391335 spi-1: 34
2393088-2393353 spi-1: BE
2395073-2395337 spi-1: D6
2397058-2397322 spi-1: FF
2399042-2399307 spi-1: F8
2401060-2401326 spi-1: DF
2403045-2403309 spi-1: CF
2405029-2405294 spi-1: 3C
2490702-2490966 spi-1: 34
2492720-2492984 spi-1: BE
2494704-2494969 spi-1: D6
2496689-2496954 spi-1: FF
2498674-2498938 spi-1: F8
2500692-2500956 spi-1: DF
2502676-2502941 spi-1: CF
2504661-2504925 spi-1: 3C
2588349-2588613 spi-1: 94
2590333-2590598 spi-1: 2D
2592351-2592616 spi-1: EA
2594336-2594600 spi-1: AE
2596321-2596585 spi-1: BD
2598305-2598570 spi-1: CA
2600356-2600621 spi-1: FF
2602308-2602572 spi-1: 9C
2689965-2690229 spi-1: B4
2691983-2692247 spi-1: BD
2693967-2694232 spi-1: F7
2695952-2696218 spi-1: FF
2697937-2698201 spi-1: FF
2699954-2700219 spi-1: DF
2701939-2702204 spi-1: 6F
2703924-2704188 spi-1: BC
2787612-2787876 spi-1: B4
2789596-2789861 spi-1: 6C
2791614-2791879 spi-1: 00
2793599-2793863 spi-1: FF
2795583-2795848 spi-1: FF
2797568-2797833 spi-1: FF
2799586-2799850 spi-1: FF
2801571-2801835 spi-1: BC
2889228-2889492 spi-1: 94
2891279-2891543 spi-1: BD
2893230-2893495 spi-1: F7
2895215-2895481 spi-1: FF
2897200-2897464 spi-1: FF
2899217-2899482 spi-1: DF
2901202-2901467 spi-1: 6F
2903187-2903451 spi-1: 9C
2988859-2989124 spi-1: B4
2990877-2991142 spi-1: 6B
2992862-2993126 spi-1: 00
2994846-2995111 spi-1: FF
2996831-2997096 spi-1: FF
2998849-2999113 spi-1: FF
3000834-3001098 spi-1: FF
3002818-3003083 spi-1: BC
3088491-3088755 spi-1: B4
3090508-3090773 spi-1: BD
3092493-3092758 spi-1: F7
3094478-3094742 spi-1: FF
3096463-3096727 spi-1: FF
3098480-3098745 spi-1: DF
3100465-3100731 spi-1: 6F
3102450-3102714 spi-1: BC
3186137-3186402 spi-1: B4
3188122-3188387 spi-1: 6A
3190140-3190406 spi-1: 00
3192125-3192389 spi-1: FF
3194109-3194374 spi-1: FF
3196094-3196360 spi-1: FF
3198112-3198376 spi-1: FF
3200096-3200361 spi-1: BC
3287754-3288018 spi-1: B4
3289771-3290036 spi-1: BD
3291756-3292021 spi-1: F7
3293741-3294005 spi-1: FF
3295725-3295990 spi-1: FF
3297743-3298008 spi-1: DF
3299728-3299992 spi-1: 6F
3301713-3301977 spi-1: BC
3387385-3387650 spi-1: B4
3389403-3389667 spi-1: 69
3391388-3391652 spi-1: 00
3393372-3393637 spi-1: FF
3395357-3395621 spi-1: FF
3397375-3397639 spi-1: FF
3399359-3399624 spi-1: FF
3401344-3401609 spi-1: BC
3487017-3487281 spi-1: B4
3489034-3489299 spi-1: BD
3491019-3491285 spi-1: F7
3493004-3493268 spi-1: FF
3494988-3495253 spi-1: FF
3497006-3497271 spi-1: DF
3498991-3499255 spi-1: 6F
3500976-3501240 spi-1: BC
3584696-3584961 spi-1: B4
3586648-3586913 spi-1: 2E
3588666-3588930 spi-1: CC
3590651-3590915 spi-1: CC
3592635-3592900 spi-1: 86
3594620-3594884 spi-1: B7
3596638-3596902 spi-1: FF
3598622-3598887 spi-1: BC
3684295-3684559 spi-1: B4
3686280-3686544 spi-1: BD
3688297-3688562 spi-1: F7
3690282-3690547 spi-1: FF
3692267-3692531 spi-1: FF
3694251-3694516 spi-1: DF
3696269-3696534 spi-1: 6F
3698254-3698518 spi-1: BC
3783926-3784191 spi-1: B4
3785911-3786176 spi-1: 2E
3787929-3788193 spi-1: CC
3789914-3790178 spi-1: CC
3791898-3792163 spi-1: 86
3793883-3794147 spi-1: B7
3795901-3796165 spi-1: FF
3797885-3798150 spi-1: BC
3883558-3883822 spi-1: B4
3885543-3885807 spi-1: BD
3887560-3887825 spi-1: F7
3889545-3889810 spi-1: FF
3891530-3891794 spi-1: FF
3893514-3893779 spi-1: DF
3895532-3895797 spi-1: 6F
3897517-3897781 spi-1: BC
3983189-3983454 spi-1: B4
3985174-3985439 spi-1: 2D
3987192-3987456 spi-1: EA
3989177-3989441 spi-1: AE
3991161-3991426 spi-1: BD
3993146-3993410 spi-1: CA
3995164-3995428 spi-1: FF
3997148-3997413 spi-1: BC
4084839-4085103 spi-1: B4
4086823-4087088 spi-1: BD
4088808-4089073 spi-1: F7
4090793-4091057 spi-1: FF
4092777-4093042 spi-1: FF
4094795-4095060 spi-1: DF
4096780-4097044 spi-1: 6F
4098765-4099029 spi-1: BC
4182452-4182717 spi-1: B4
4184470-4184735 spi-1: 6C
4186455-4186719 spi-1: 00
4188440-4188704 spi-1: FF
4190424-4190689 spi-1: FF
4192409-4192673 spi-1: FF
1782288-1809232 rnsMfd2-1: 0xCA
1809232-1833939 rnsMfd2-1: 0x34
1833939-1858647 rnsMfd2-1: 0x31
1858647-1887826 rnsMfd2-1: 0xCE
2083707-2110651 rnsMfd2-1: 0xCA
2110651-2135358 rnsMfd2-1: 0x34
2135358-2157830 rnsMfd2-1: 0x28
2157830-2189245 rnsMfd2-1: 0xD7
2385477-2412420 rnsMfd2-1: 0xCA
2412420-2437128 rnsMfd2-1: 0x34
2437128-2461835 rnsMfd2-1: 0x1C
2461835-2491015 rnsMfd2-1: 0xE3
2686917-2713860 rnsMfd2-1: 0xCA
2713860-2738568 rnsMfd2-1: 0x34
2738568-2761039 rnsMfd2-1: 0x28
2761039-2792454 rnsMfd2-1: 0xD7
4194427-4194691 spi-1: FF
4196411-4196676 spi-1: BC
4282084-4282348 spi-1: B4
4284102-4284366 spi-1: BD
4286086-4286351 spi-1: F7
4288071-4288337 spi-1: FF
4290056-4290320 spi-1: FF
4292073-4292338 spi-1: DF
4294058-4294323 spi-1: 6F
4296043-4296307 spi-1: BC
4381715-4381980 spi-1: B4
4383733-4383998 spi-1: 6B
4385718-4385982 spi-1: 00
4387703-4387967 spi-1: FF
4389687-4389952 spi-1: FF
4391672-4391936 spi-1: FF
4393690-4393954 spi-1: FF
4395674-4395939 spi-1: BC
4483365-4483629 spi-1: B4
4485349-4485614 spi-1: BD
4487334-4487600 spi-1: F7
4489319-4489583 spi-1: FF
4491336-4491601 spi-1: FF
4493321-4493586 spi-1: DF
4495306-4495570 spi-1: 6F
4497291-4497555 spi-1: BC
4582996-4583261 spi-1: B4
4584981-4585245 spi-1: 6A
4586965-4587230 spi-1: 00
4588950-4589215 spi-1: FF
4590968-4591232 spi-1: FF
4592953-4593217 spi-1: FF
4594937-4595202 spi-1: FF
4596922-4597188 spi-1: BC
4682628-4682892 spi-1: B4
4684612-4684877 spi-1: BD
4686597-4686863 spi-1: F7
4688582-4688846 spi-1: FF
4690633-4690897 spi-1: FF
4692584-4692849 spi-1: DF
4694602-4694866 spi-1: 6F
4696553-4696818 spi-1: BC
