1547285-1547352 spi-1: F4
1547781-1547847 spi-1: BE
1548277-1548343 spi-1: FE
1548773-1548839 spi-1: FF
1549278-1549345 spi-1: FD
1549774-1549840 spi-1: FF
1550270-1550336 spi-1: FF
1550766-1550832 spi-1: FC
1571687-1571753 spi-1: F4
1572192-1572259 spi-1: 2E
1572688-1572754 spi-1: CC
1573184-1573250 spi-1: CC
1573680-1573746 spi-1: 86
1574185-1574252 spi-1: B7
1574681-1574748 spi-1: FF
1575177-1575243 spi-1: FC
1596594-1596660 spi-1: F4
1597099-1597166 spi-1: BE
1597595-1597662 spi-1: FE
1598091-1598157 spi-1: FF
1598587-1598653 spi-1: FD
1599092-1599157 spi-1: FF
1599588-1599655 spi-1: 8F
1600084-1600150 spi-1: FC
1622006-1622071 spi-1: F4
1622502-1622569 spi-1: 6D
1622998-1623064 spi-1: 00
1623494-1623560 spi-1: FF
1623998-1624064 spi-1: FF
1624495-1624562 spi-1: FF
1624991-1625058 spi-1: FF
1625487-1625553 spi-1: FC
1646913-1646978 spi-1: F4
1647409-1647476 spi-1: BE
1647905-1647972 spi-1: FE
1648401-1648467 spi-1: FF
1648905-1648971 spi-1: FD
1649402-1649467 spi-1: FF
1649898-1649965 spi-1: 8F
1650394-1650461 spi-1: FC
1671819-1671885 spi-1: F4
1672316-1672383 spi-1: 6C
1672812-1672879 spi-1: 00
1673308-1673374 spi-1: FF
1673812-1673878 spi-1: FF
1674309-1674374 spi-1: FF
1674805-1674872 spi-1: FF
1675301-1675368 spi-1: FC
1696230-1696296 spi-1: F4
1696726-1696792 spi-1: BE
1697223-1697288 spi-1: FE
1697719-1697786 spi-1: FF
1698215-1698282 spi-1: FD
1698719-1698785 spi-1: FF
1699215-1699281 spi-1: 8F
1699712-1699777 spi-1: FC
1721145-1721211 spi-1: F4
1721633-1721699 spi-1: 6B
1722129-1722195 spi-1: 00
1722626-1722693 spi-1: FF
1723122-1723189 spi-1: FF
1723626-1723692 spi-1: FF
1724122-1724188 spi-1: FF
1724619-1724684 spi-1: FC
1746540-1746606 spi-1: F4
1747036-1747102 spi-1: BE
1747533-1747598 spi-1: FE
1748029-1748096 spi-1: FF
1748533-1748599 spi-1: FD
1749029-1749095 spi-1: FF
1749525-1749591 spi-1: 8F
1750030-1750097 spi-1: FC
1771447-1771513 spi-1: F4
1771943-1772009 spi-1: 6A
1772440-1772505 spi-1: 00
1772936-1773003 spi-1: FF
1773440-1773506 spi-1: FF
1773936-1774002 spi-1: FF
1774441-1774508 spi-1: FF
1774929-1774994 spi-1: FC
1795858-1795924 spi-1: F4
1796354-1796420 spi-1: BE
1796850-1796916 spi-1: FE
1797346-1797412 spi-1: FF
1797843-1797910 spi-1: FD
1798347-1798413 spi-1: FF
1798843-1798909 spi-1: 8F
1799339-1799405 spi-1: FC
1820765-1820831 spi-1: F4
1821261-1821327 spi-1: 69
1821757-1821823 spi-1: 00
1822253-1822319 spi-1: FF
1822750-1822815 spi-1: FF
1823254-1823320 spi-1: FF
1823750-1823816 spi-1: FF
1824246-1824312 spi-1: FC
1846168-1846234 spi-1: F4
1846664-1846730 spi-1: BE
1847160-1847226 spi-1: FE
1847657-1847722 spi-1: FF
1848161-1848227 spi-1: FD
1848657-1848723 spi-1: FF
1849153-1849219 spi-1: 8F
1849649-1849715 spi-1: FC
1871075-1871141 spi-1: F4
1871571-1871637 spi-1: 2E
1872067-1872133 spi-1: CC
1872572-1872639 spi-1: CC
1873068-1873134 spi-1: 86
1873564-1873630 spi-1: B7
1874060-1874126 spi-1: FF
1874556-1874622 spi-1: FC
1895982-1896048 spi-1: F4
1896478-1896544 spi-1: BE
1896974-1897040 spi-1: FE
1897479-1897546 spi-1: FF
1897975-1898042 spi-1: FD
1898471-1898537 spi-1: FF
1898967-1899033 spi-1: 8F
1899463-1899529 spi-1: FC
1920393-1920460 spi-1: F4
1920889-1920955 spi-1: 2E
1921385-1921451 spi-1: CC
1921881-1921947 spi-1: CC
1922386-1922453 spi-1: 86
1922882-1922949 spi-1: B7
1923378-1923444 spi-1: FF
1923874-1923940 spi-1: FC
1945308-1945374 spi-1: F4
1945796-1945862 spi-1: BE
1946292-1946358 spi-1: FE
1946788-1946854 spi-1: FF
1947293-1947360 spi-1: FD
1947789-1947856 spi-1: FF
1948285-1948351 spi-1: 8F
1948781-1948847 spi-1: FC
1970703-1970770 spi-1: F4
1971199-1971265 spi-1: BE
1971695-1971761 spi-1: FE
1972200-1972265 spi-1: FF
1972696-1972763 spi-1: FD
1973192-1973258 spi-1: FF
1973688-1973754 spi-1: 8F
1974184-1974250 spi-1: FC
1995610-1995677 spi-1: F4
1996106-1996172 spi-1: BE
1996602-1996668 spi-1: FE
1997107-1997172 spi-1: FF
1997603-1997670 spi-1: FD
1998099-1998166 spi-1: FF
1998612-1998677 spi-1: 8F
1999099-1999165 spi-1: FC
2020021-2020088 spi-1: F4
2020517-2020584 spi-1: BE
2021013-2021079 spi-1: FE
2021509-2021575 spi-1: FF
2022014-2022079 spi-1: FD
2022510-2022577 spi-1: FF
2023006-2023073 spi-1: 8F
2023502-2023568 spi-1: FC
2044928-2044995 spi-1: F4
2045424-2045491 spi-1: BE
2045920-2045986 spi-1: FE
2046416-2046482 spi-1: FF
2046921-2046986 spi-1: FD
2047425-2047491 spi-1: FF
2047913-2047980 spi-1: 8F
2048409-2048475 spi-1: FC
2070331-2070398 spi-1: F4
2070827-2070893 spi-1: BE
2071323-2071389 spi-1: FE
2071827-2071893 spi-1: FF
2072324-2072391 spi-1: FD
2072820-2072887 spi-1: FF
2073316-2073382 spi-1: 8F
2073820-2073886 spi-1: FC
2095238-2095305 spi-1: F4
2095734-2095800 spi-1: BE
2096238-2096304 spi-1: FE
2096734-2096800 spi-1: FF
2097231-2097298 spi-1: FD
2097727-2097794 spi-1: FF
2098223-2098289 spi-1: 8F
2098727-2098793 spi-1: FC
2119649-2119714 spi-1: F4
2120145-2120212 spi-1: BE
2120641-2120708 spi-1: FE
2121137-2121203 spi-1: FF
2121641-2121707 spi-1: FD
2122138-2122205 spi-1: FF
2122634-2122701 spi-1: 8F
2123130-2123196 spi-1: FC
2144556-2144621 spi-1: F4
2145060-2145126 spi-1: BE
2145548-2145615 spi-1: FE
2146044-2146110 spi-1: FF
2146548-2146614 spi-1: FD
2147045-2147110 spi-1: FF
2147541-2147608 spi-1: 8F
2148037-2148103 spi-1: FC
2169959-2170026 spi-1: F4
2170455-2170522 spi-1: BE
2170951-2171017 spi-1: FE
2171455-2171521 spi-1: FF
2171952-2172017 spi-1: FD
2172448-2172515 spi-1: FF
2172944-2173010 spi-1: 8F
2173448-2173514 spi-1: FC
2194866-2194933 spi-1: F4
2195362-2195429 spi-1: BE
2195858-2195924 spi-1: FE
2196362-2196428 spi-1: FF
2196859-2196924 spi-1: FD
2197355-2197422 spi-1: FF
2197851-2197917 spi-1: 8F
2198355-2198421 spi-1: FC
2219773-2219840 spi-1: F4
2220269-2220336 spi-1: BE
2220765-2220831 spi-1: FE
2221269-2221335 spi-1: FF
2221766-2221831 spi-1: FD
2222262-2222329 spi-1: FF
2222758-2222824 spi-1: 8F
2223262-2223328 spi-1: FC
2244184-2244249 spi-1: F4
2244680-2244747 spi-1: BE
2245176-2245243 spi-1: FE
2245672-2245738 spi-1: FF
2246176-2246242 spi-1: FD
2246673-2246738 spi-1: FF
2247169-2247236 spi-1: 8F
2247665-2247731 spi-1: FC
2269587-2269654 spi-1: F4
2270083-2270150 spi-1: BE
2270579-2270645 spi-1: FE
2271083-2271149 spi-1: FF
2271580-2271645 spi-1: FD
2272076-2272143 spi-1: FF
2272572-2272638 spi-1: 8F
2273076-2273142 spi-1: FC
2294494-2294561 spi-1: F4
2294990-2295057 spi-1: BE
2295486-2295552 spi-1: FE
2295990-2296056 spi-1: FF
2296487-2296552 spi-1: FD
2296983-2297050 spi-1: FF
2297479-2297545 spi-1: 8F
2297983-2298049 spi-1: FC
2319401-2319468 spi-1: F4
2319897-2319964 spi-1: BE
2320393-2320459 spi-1: FE
2320897-2320963 spi-1: FF
2321394-2321459 spi-1: FD
2321890-2321957 spi-1: FF
2322386-2322452 spi-1: 8F
2322890-2322956 spi-1: FC
2343812-2343877 spi-1: F4
2344308-2344375 spi-1: BE
2344804-2344871 spi-1: FE
2345300-2345366 spi-1: FF
2345804-2345870 spi-1: FD
2346301-2346366 spi-1: FF
2346797-2346864 spi-1: 8F
2347293-2347359 spi-1: FC
2368719-2368784 spi-1: F4
2369215-2369282 spi-1: BE
2369711-2369778 spi-1: FE
2370207-2370273 spi-1: FF
2370711-2370777 spi-1: FD
2371208-2371273 spi-1: FF
2371704-2371771 spi-1: 8F
2372200-2372266 spi-1: FC
2394122-2394189 spi-1: F4
2394618-2394684 spi-1: BE
2395114-2395180 spi-1: FE
2395618-2395684 spi-1: FF
2396115-2396182 spi-1: FD
2396611-2396678 spi-1: FF
2397107-2397173 spi-1: 8F
2397611-2397677 spi-1: FC
2419029-2419096 spi-1: F4
2419525-2419591 spi-1: BE
2420021-2420087 spi-1: FE
2420525-2420591 spi-1: FF
2421022-2421089 spi-1: FD
2421518-2421585 spi-1: FF
2422022-2422088 spi-1: 8F
2422518-2422584 spi-1: FC
2443440-2443505 spi-1: F4
2443936-2444003 spi-1: BE
2444432-2444498 spi-1: FE
2444928-2444994 spi-1: FF
2445433-2445498 spi-1: FD
2445929-2445996 spi-1: FF
2446425-2446492 spi-1: 8F
2446921-2446987 spi-1: FC
2468347-2468414 spi-1: F4
2468843-2468910 spi-1: BE
2469339-2469405 spi-1: FE
2469835-2469901 spi-1: FF
2470340-2470405 spi-1: FD
2470844-2470910 spi-1: FF
2471332-2471399 spi-1: 8F
2471828-2471894 spi-1: FC
2493750-2493817 spi-1: F4
2494246-2494312 spi-1: BE
2494742-2494808 spi-1: FE
2495247-2495312 spi-1: FF
2495743-2495810 spi-1: FD
2496239-2496306 spi-1: FF
2496735-2496801 spi-1: 8F
2497239-2497305 spi-1: FC
2518657-2518724 spi-1: F4
2519153-2519219 spi-1: BE
2519657-2519723 spi-1: FE
2520154-2520219 spi-1: FF
2520650-2520717 spi-1: FD
2521154-2521220 spi-1: FF
2521642-2521708 spi-1: 8F
2522146-2522212 spi-1: FC
2543076-2543142 spi-1: 94
2543564-2543631 spi-1: 2E
2544060-2544126 spi-1: CC
2544564-2544630 spi-1: CC
2545069-2545136 spi-1: 86
2545557-2545624 spi-1: B7
2546053-2546119 spi-1: FF
2546549-2546615 spi-1: 9C
2568471-2568538 spi-1: B4
2568967-2569033 spi-1: BE
2569471-2569537 spi-1: FE
2569968-2570033 spi-1: FF
2570464-2570531 spi-1: FD
2570960-2571027 spi-1: FF
2571456-2571522 spi-1: 6F
2571960-2572026 spi-1: BC
2593378-2593445 spi-1: B4
2593874-2593940 spi-1: 6D
2594378-2594444 spi-1: 00
2594875-2594940 spi-1: FF
2595371-2595438 spi-1: FF
2595867-2595934 spi-1: FF
2596371-2596437 spi-1: FF
2596867-2596933 spi-1: BC
2617789-2617856 spi-1: 94
2618285-2618352 spi-1: BE
2618781-2618847 spi-1: FE
2619285-2619351 spi-1: FF
2619782-2619847 spi-1: FD
2620278-2620345 spi-1: FF
2620774-2620841 spi-1: 6F
2621278-2621344 spi-1: 9C
2643192-2643259 spi-1: B4
2643688-2643754 spi-1: 6C
2644192-2644258 spi-1: 00
2644689-2644754 spi-1: FF
2645185-2645252 spi-1: FF
2645681-2645748 spi-1: FF
2646185-2646251 spi-1: FF
2646681-2646747 spi-1: BC
2667603-2667668 spi-1: B4
2668099-2668166 spi-1: BE
2668595-2668661 spi-1: FE
2669099-2669165 spi-1: FF
2669595-2669661 spi-1: FD
2670092-2670159 spi-1: FF
2670588-2670655 spi-1: 6F
2671092-2671158 spi-1: BC
2692510-2692575 spi-1: B4
2693006-2693073 spi-1: 6B
2693502-2693568 spi-1: 00
2694006-2694072 spi-1: FF
2694502-2694568 spi-1: FF
2694999-2695066 spi-1: FF
2695495-2695562 spi-1: FF
2695999-2696065 spi-1: BC
2717913-2717980 spi-1: B4
2718409-2718475 spi-1: BE
2718913-2718979 spi-1: FE
2719409-2719475 spi-1: FF
2719906-2719973 spi-1: FD
2720402-2720469 spi-1: FF
2720906-2720972 spi-1: 6F
2721402-2721468 spi-1: BC
2742820-2742887 spi-1: B4
2743316-2743382 spi-1: 6A
2743820-2743886 spi-1: 00
2744316-2744382 spi-1: FF
2744813-2744880 spi-1: FF
2745309-2745376 spi-1: FF
2745813-2745879 spi-1: FF
2746309-2746375 spi-1: BC
2767727-2767794 spi-1: B4
2768223-2768290 spi-1: BE
2768727-2768793 spi-1: FE
2769223-2769289 spi-1: FF
2769720-2769787 spi-1: FD
2770216-2770283 spi-1: FF
2770720-2770786 spi-1: 6F
2771216-2771282 spi-1: BC
2792634-2792701 spi-1: B4
2793130-2793197 spi-1: 69
2793634-2793700 spi-1: 00
2794130-2794196 spi-1: FF
2794627-2794692 spi-1: FF
2795123-2795190 spi-1: FF
2795627-2795693 spi-1: FF
2796123-2796189 spi-1: BC
2817045-2817110 spi-1: B4
2817541-2817608 spi-1: BE
2818037-2818104 spi-1: FE
2818541-2818607 spi-1: FF
2819037-2819103 spi-1: FD
2819534-2819599 spi-1: FF
2820030-2820097 spi-1: 6F
2820534-2820600 spi-1: BC
2842448-2842515 spi-1: B4
2842944-2843011 spi-1: 2E
2843448-2843514 spi-1: CC
2843944-2844010 spi-1: CC
2844441-2844506 spi-1: 86
2844937-2845004 spi-1: B7
2845441-2845507 spi-1: FF
2845937-2846003 spi-1: BC
2866859-2866924 spi-1: B4
2867355-2867422 spi-1: BE
2867851-2867918 spi-1: FE
2868355-2868421 spi-1: FF
2868851-2868917 spi-1: FD
2869348-2869413 spi-1: FF
2869844-2869911 spi-1: 6F
2870348-2870414 spi-1: BC
2892262-2892329 spi-1: B4
2892758-2892825 spi-1: 2E
2893262-2893328 spi-1: CC
2893758-2893824 spi-1: CC
2894255-2894320 spi-1: 86
2894751-2894818 spi-1: B7
2895255-2895321 spi-1: FF
2895751-2895817 spi-1: BC
2916673-2916738 spi-1: B4
2917169-2917236 spi-1: BE
2917665-2917732 spi-1: FE
2918169-2918235 spi-1: FF
2918665-2918731 spi-1: FD
2919162-2919227 spi-1: FF
2919658-2919725 spi-1: 6F
2920162-2920228 spi-1: BC
2942076-2942143 spi-1: B4
2942572-2942639 spi-1: 6D
2943076-2943142 spi-1: 00
2943572-2943638 spi-1: FF
2944069-2944134 spi-1: FF
2944565-2944632 spi-1: FF
2945069-2945135 spi-1: FF
2945565-2945631 spi-1: BC
2966487-2966552 spi-1: B4
2966983-2967050 spi-1: BE
2967479-2967545 spi-1: FE
2967983-2968049 spi-1: FF
2968479-2968545 spi-1: FD
2968976-2969043 spi-1: FF
2969472-2969539 spi-1: 6F
2969976-2970042 spi-1: BC
2991890-2991957 spi-1: B4
2992386-2992452 spi-1: 6C
2992890-2992956 spi-1: 00
2993386-2993452 spi-1: FF
2993883-2993950 spi-1: FF
2994379-2994446 spi-1: FF
2994883-2994949 spi-1: FF
2995379-2995445 spi-1: BC
3016797-3016864 spi-1: B4
3017293-3017359 spi-1: BE
3017797-3017863 spi-1: FE
3018293-3018359 spi-1: FF
3018790-3018857 spi-1: FD
3019286-3019353 spi-1: FF
3019790-3019856 spi-1: 6F
3020286-3020352 spi-1: BC
3041704-3041771 spi-1: B4
3042208-3042274 spi-1: 6B
3042704-3042770 spi-1: 00
3043200-3043266 spi-1: FF
3043697-3043764 spi-1: FF
3044193-3044260 spi-1: FF
3044697-3044763 spi-1: FF
3045193-3045259 spi-1: BC
3066611-3066678 spi-1: B4
3067107-3067173 spi-1: BE
3067611-3067677 spi-1: FE
3068108-3068173 spi-1: FF
3068604-3068671 spi-1: FD
3069100-3069167 spi-1: FF
3069604-3069670 spi-1: 6F
3070100-3070166 spi-1: BC
3091518-3091585 spi-1: B4
3092014-3092080 spi-1: 6A
3092518-3092584 spi-1: 00
3093014-3093080 spi-1: FF
3093511-3093578 spi-1: FF
3094007-3094074 spi-1: FF
3094511-3094577 spi-1: FF
3095007-3095073 spi-1: BC
3116425-3116492 spi-1: B4
3116929-3116995 spi-1: BE
3117425-3117491 spi-1: FE
3117921-3117987 spi-1: FF
3118426-3118492 spi-1: FD
3118914-3118981 spi-1: FF
3119418-3119484 spi-1: 6F
3119914-3119980 spi-1: BC
3141332-3141399 spi-1: B4
3141836-3141902 spi-1: 69
3142332-3142398 spi-1: 00
3142828-3142894 spi-1: FF
3143325-3143392 spi-1: FF
3143821-3143888 spi-1: FF
3144325-3144391 spi-1: FF
3144821-3144887 spi-1: BC
3166239-3166306 spi-1: B4
3166743-3166809 spi-1: BE
3167239-3167305 spi-1: FE
3167735-3167801 spi-1: FF
3168232-3168299 spi-1: FD
3168736-3168802 spi-1: FF
3169232-3169298 spi-1: 6F
3169728-3169794 spi-1: BC
3191146-3191213 spi-1: B4
3191650-3191716 spi-1: 2E
3192146-3192212 spi-1: CC
3192642-3192708 spi-1: CC
3193139-3193204 spi-1: 86
3193643-3193709 spi-1: B7
3194139-3194205 spi-1: FF
3194635-3194701 spi-1: BC
3216053-3216120 spi-1: B4
3216557-3216623 spi-1: BE
3217062-3217127 spi-1: FE
3217549-3217615 spi-1: FF
3218046-3218111 spi-1: FD
3218550-3218616 spi-1: FF
3219046-3219112 spi-1: 6F
3219542-3219608 spi-1: BC
3240960-3241027 spi-1: B4
3241464-3241530 spi-1: 2E
3241960-3242026 spi-1: CC
3242456-3242522 spi-1: CC
3242953-3243018 spi-1: 86
3243457-3243523 spi-1: B7
3243953-3244019 spi-1: FF
3244449-3244515 spi-1: BC
3265867-3265934 spi-1: B4
3266371-3266437 spi-1: BE
3266867-3266933 spi-1: FE
3267363-3267429 spi-1: FF
3267860-3267925 spi-1: FD
3268364-3268430 spi-1: FF
3268860-3268926 spi-1: 6F
3269356-3269422 spi-1: BC
3290278-3290343 spi-1: B4
3290774-3290841 spi-1: 6D
3291278-3291344 spi-1: 00
3291774-3291840 spi-1: FF
3292270-3292336 spi-1: FF
3292767-3292832 spi-1: FF
3293271-3293337 spi-1: FF
3293767-3293833 spi-1: BC
3315681-3315748 spi-1: B4
3316185-3316251 spi-1: BE
3316690-3316755 spi-1: FE
3317177-3317243 spi-1: FF
3317674-3317739 spi-1: FD
3318178-3318244 spi-1: FF
3318674-3318740 spi-1: 6F
3319170-3319236 spi-1: BC
3340092-3340157 spi-1: B4
3340588-3340655 spi-1: 6C
3341092-3341158 spi-1: 00
3341588-3341654 spi-1: FF
3342084-3342150 spi-1: FF
3342581-3342646 spi-1: FF
3343085-3343151 spi-1: FF
3343581-3343647 spi-1: BC
3364999-3365064 spi-1: B4
3365495-3365562 spi-1: BE
3365999-3366065 spi-1: FE
3366495-3366561 spi-1: FF
3366991-3367057 spi-1: FD
3367488-3367553 spi-1: FF
3367992-3368058 spi-1: 6F
3368488-3368554 spi-1: BC
3389906-3389971 spi-1: B4
3390402-3390469 spi-1: 6B
3390906-3390972 spi-1: 00
3391402-3391468 spi-1: FF
3391898-3391964 spi-1: FF
3392395-3392460 spi-1: FF
3392899-3392965 spi-1: FF
3393395-3393461 spi-1: BC
3414813-3414878 spi-1: B4
3415317-3415383 spi-1: BE
3415813-3415879 spi-1: FE
3416309-3416375 spi-1: FF
3416805-3416871 spi-1: FD
3417302-3417367 spi-1: FF
3417806-3417872 spi-1: 6F
3418302-3418368 spi-1: BC
3439720-3439785 spi-1: B4
3440216-3440283 spi-1: 6A
3440720-3440786 spi-1: 00
3441216-3441282 spi-1: FF
3441712-3441778 spi-1: FF
3442209-3442274 spi-1: FF
3442713-3442779 spi-1: FF
3443209-3443275 spi-1: BC
3465123-3465190 spi-1: B4
3465627-3465693 spi-1: BE
3466123-3466189 spi-1: FE
3466619-3466685 spi-1: FF
3467116-3467181 spi-1: FD
3467620-3467686 spi-1: FF
3468116-3468182 spi-1: 6F
3468612-3468678 spi-1: BC
3490030-3490097 spi-1: B4
3490534-3490600 spi-1: 69
3491030-3491096 spi-1: 00
3491526-3491592 spi-1: FF
3492023-3492090 spi-1: FF
3492535-3492601 spi-1: FF
3493023-3493089 spi-1: FF
3493519-3493585 spi-1: BC
3514441-3514506 spi-1: B4
3514945-3515011 spi-1: BE
3515441-3515507 spi-1: FE
3515937-3516003 spi-1: FF
3516450-3516516 spi-1: FD
3516930-3516997 spi-1: FF
3517434-3517500 spi-1: 6F
3517930-3517996 spi-1: BC
3539844-3539911 spi-1: B4
3540348-3540414 spi-1: 2E
3540844-3540910 spi-1: CC
3541341-3541406 spi-1: CC
3541837-3541904 spi-1: 86
3542341-3542407 spi-1: B7
3542837-3542903 spi-1: FF
3543333-3543399 spi-1: BC
3564263-3564329 spi-1: B4
3564751-3564818 spi-1: BE
3565255-3565321 spi-1: FE
3565751-3565817 spi-1: FF
3566248-3566313 spi-1: FD
3566744-3566811 spi-1: FF
3567248-3567314 spi-1: 6F
3567744-3567810 spi-1: BC
3589162-3589229 spi-1: B4
3589658-3589725 spi-1: 2E
3590162-3590228 spi-1: CC
3590658-3590724 spi-1: CC
3591155-3591220 spi-1: 86
3591651-3591718 spi-1: B7
3592155-3592221 spi-1: FF
3592651-3592717 spi-1: BC
3614573-3614639 spi-1: B4
3615069-3615135 spi-1: BE
3615565-3615631 spi-1: FE
3616062-3616127 spi-1: FF
3616558-3616625 spi-1: FD
3617062-3617128 spi-1: FF
3617558-3617624 spi-1: 6F
3618063-3618130 spi-1: BC
3639480-3639546 spi-1: B4
3639976-3640042 spi-1: 6D
3640472-3640538 spi-1: 00
3640969-3641036 spi-1: FF
3641465-3641532 spi-1: FF
3641969-3642035 spi-1: FF
3642465-3642531 spi-1: FF
3642962-3643027 spi-1: BC
3663891-3663957 spi-1: B4
3664379-3664445 spi-1: BE
3664883-3664949 spi-1: FE
3665380-3665445 spi-1: FF
3665876-3665943 spi-1: FD
3666372-3666439 spi-1: FF
3666876-3666942 spi-1: 6F
3667372-3667438 spi-1: BC
3689294-3689360 spi-1: B4
3689790-3689856 spi-1: 6C
3690287-3690352 spi-1: 00
3690783-3690850 spi-1: FF
3691279-3691346 spi-1: FF
3691783-3691849 spi-1: FF
3692279-3692345 spi-1: FF
3692776-3692841 spi-1: BC
3714201-3714267 spi-1: B4
3714697-3714763 spi-1: BE
3715194-3715259 spi-1: FE
3715690-3715757 spi-1: FF
3716186-3716252 spi-1: FD
3716690-3716756 spi-1: FF
3717186-3717252 spi-1: 6F
3717691-3717757 spi-1: BC
3739108-3739174 spi-1: B4
3739604-3739670 spi-1: 6B
3740101-3740168 spi-1: 00
3740597-3740664 spi-1: FF
3741093-3741159 spi-1: FF
3741597-3741663 spi-1: FF
3742094-3742159 spi-1: FF
3742590-3742657 spi-1: BC
3764015-3764081 spi-1: B4
3764512-3764577 spi-1: BE
3765008-3765075 spi-1: FE
3765504-3765571 spi-1: FF
3766000-3766066 spi-1: FD
3766504-3766570 spi-1: FF
3767001-3767066 spi-1: 6F
3767497-3767564 spi-1: BC
3788922-3788988 spi-1: B4
3789419-3789484 spi-1: 6A
3789923-3789989 spi-1: 00
3790411-3790478 spi-1: FF
3790907-3790973 spi-1: FF
3791411-3791477 spi-1: FF
3791908-3791973 spi-1: FF
3792404-3792471 spi-1: BC
3813829-3813895 spi-1: B4
3814326-3814391 spi-1: BE
3814822-3814889 spi-1: FE
3815318-3815384 spi-1: FF
3815814-3815880 spi-1: FD
3816319-3816384 spi-1: FF
3816815-3816882 spi-1: 6F
3817311-3817378 spi-1: BC
3838736-3838802 spi-1: B4
3839233-3839300 spi-1: 69
3839729-3839796 spi-1: 00
3840225-3840291 spi-1: FF
3840729-3840795 spi-1: FF
3841226-3841291 spi-1: FF
3841722-3841789 spi-1: FF
3842218-3842285 spi-1: BC
3863644-3863709 spi-1: B4
3864140-3864207 spi-1: BE
3864636-3864703 spi-1: FE
3865132-3865198 spi-1: FF
3865636-3865702 spi-1: FD
3866133-3866198 spi-1: FF
3866629-3866696 spi-1: 6F
3867125-3867191 spi-1: BC
3888551-3888616 spi-1: B4
3889047-3889114 spi-1: 2E
3889543-3889609 spi-1: CC
3890039-3890105 spi-1: CC
3890543-3890609 spi-1: 86
3891040-3891107 spi-1: B7
3891544-3891610 spi-1: FF
3892032-3892098 spi-1: BC
3913458-3913525 spi-1: B4
3913954-3914021 spi-1: BE
3914450-3914516 spi-1: FE
3914946-3915012 spi-1: FF
3915451-3915516 spi-1: FD
3915947-3916014 spi-1: FF
3916443-3916510 spi-1: 6F
3916939-3917005 spi-1: BC
3937860-3937926 spi-1: B4
3938365-3938432 spi-1: 2E
3938861-3938928 spi-1: CC
3939357-3939423 spi-1: CC
3939853-3939919 spi-1: 86
3940358-3940423 spi-1: B7
3940854-3940921 spi-1: FF
3941350-3941417 spi-1: BC
3963272-3963339 spi-1: B4
3963768-3963835 spi-1: BE
3964264-3964330 spi-1: FE
3964760-3964826 spi-1: FF
3965265-3965330 spi-1: FD
3965761-3965828 spi-1: FF
3966257-3966323 spi-1: 6F
3966753-3966819 spi-1: BC
3988179-3988246 spi-1: B4
3988675-3988741 spi-1: 6D
3989171-3989237 spi-1: 00
3989667-3989733 spi-1: FF
3990172-3990239 spi-1: FF
3990668-3990735 spi-1: FF
3991164-3991230 spi-1: FF
3991668-3991734 spi-1: BC
4013086-4013153 spi-1: B4
4013582-4013648 spi-1: BE
4014078-4014144 spi-1: FE
4014574-4014640 spi-1: FF
4015079-4015146 spi-1: FD
4015575-4015642 spi-1: FF
4016071-4016137 spi-1: 6F
4016575-4016641 spi-1: BC
4037993-4038060 spi-1: B4
4038489-4038555 spi-1: 6C
4038985-4039051 spi-1: 00
4039481-4039547 spi-1: FF
4039986-4040053 spi-1: FF
4040482-4040548 spi-1: FF
4040978-4041044 spi-1: FF
4041474-4041540 spi-1: BC
4062395-4062461 spi-1: B4
4062900-4062966 spi-1: BE
4063396-4063462 spi-1: FE
4063892-4063958 spi-1: FF
4064388-4064454 spi-1: FD
4064893-4064960 spi-1: FF
4065389-4065455 spi-1: 6F
4065885-4065951 spi-1: BC
4087807-4087873 spi-1: B4
4088303-4088369 spi-1: 6B
4088799-4088865 spi-1: 00
4089295-4089361 spi-1: FF
4089800-4089867 spi-1: FF
4090296-4090362 spi-1: FF
4090792-4090858 spi-1: FF
4091288-4091354 spi-1: BC
4112210-4112275 spi-1: B4
4112714-4112780 spi-1: BE
4113210-4113276 spi-1: FE
4113706-4113772 spi-1: FF
4114202-4114268 spi-1: FD
4114707-4114773 spi-1: FF
4115203-4115269 spi-1: 6F
4115699-4115765 spi-1: BC
4137621-4137687 spi-1: B4
4138117-4138183 spi-1: 6A
4138613-4138679 spi-1: 00
4139110-4139175 spi-1: FF
4139614-4139680 spi-1: FF
4140110-4140176 spi-1: FF
4140606-4140672 spi-1: FF
4141102-4141168 spi-1: BC
4162528-4162594 spi-1: B4
4163024-4163090 spi-1: BE
4163520-4163586 spi-1: FE
4164017-4164082 spi-1: FF
4164521-4164587 spi-1: FD
4165017-4165083 spi-1: FF
4165513-4165579 spi-1: AF
4166009-4166075 spi-1: BC
4187435-4187501 spi-1: B4
4187931-4187997 spi-1: 2E
4188427-4188493 spi-1: CC
4188924-4188989 spi-1: CC
4189428-4189494 spi-1: 86
4189924-4189990 spi-1: B7
4190420-4190486 spi-1: FF
4190916-4190982 spi-1: BC
256228-262964 rnsMfd2-1: 0xCA
262964-269140 rnsMfd2-1: 0x34
269140-274199 rnsMfd2-1: 0x8
274199-282612 rnsMfd2-1: 0xF7
356754-363490 rnsMfd2-1: 0xCA
363490-369667 rnsMfd2-1: 0x34
369667-375284 rnsMfd2-1: 0x28
375284-383138 rnsMfd2-1: 0xD7
2509226-2515962 rnsMfd2-1: 0xCA
2515962-2522139 rnsMfd2-1: 0x34
2522139-2528875 rnsMfd2-1: 0x27
2528875-2535611 rnsMfd2-1: 0xD8
2584614-2591350 rnsMfd2-1: 0xCA
2591350-2597527 rnsMfd2-1: 0x34
2597527-2603145 rnsMfd2-1: 0x28
2603145-2610999 rnsMfd2-1: 0xD7
4179746-4186482 rnsMfd2-1: 0xCA
4186482-4192659 rnsMfd2-1: 0x34
4212342-4212408 spi-1: 94
4212838-4212904 spi-1: BE
4213334-4213400 spi-1: FE
4213831-4213898 spi-1: FF
4214335-4214401 spi-1: FD
4214831-4214897 spi-1: FF
4215327-4215393 spi-1: AF
4215824-4215889 spi-1: 9C
4237249-4237315 spi-1: B4
4237745-4237811 spi-1: BE
4238242-4238307 spi-1: FE
4238738-4238805 spi-1: FF
4239242-4239308 spi-1: FD
4239738-4239804 spi-1: FF
4240243-4240310 spi-1: AF
4240731-4240796 spi-1: BC
4261660-4261726 spi-1: B4
4262156-4262222 spi-1: BE
4262652-4262718 spi-1: FE
4263149-4263214 spi-1: FF
4263645-4263712 spi-1: FD
4264149-4264215 spi-1: FF
4264645-4264711 spi-1: AF
4265141-4265207 spi-1: BC
4287063-4287129 spi-1: 94
4287559-4287625 spi-1: BE
4288056-4288121 spi-1: FE
4288552-4288619 spi-1: FF
4289056-4289122 spi-1: FD
4289552-4289618 spi-1: FF
4290048-4290114 spi-1: AF
4290545-4290612 spi-1: 9C
4311970-4312036 spi-1: B4
4312466-4312532 spi-1: BE
4312963-4313030 spi-1: FE
4313459-4313526 spi-1: FF
4313963-4314029 spi-1: FD
4314459-4314525 spi-1: FF
4314956-4315021 spi-1: AF
4315452-4315519 spi-1: BC
4336877-4336943 spi-1: B4
4337374-4337439 spi-1: BE
4337870-4337937 spi-1: FE
4338366-4338433 spi-1: FF
4338870-4338936 spi-1: FD
4339366-4339432 spi-1: FF
4339863-4339928 spi-1: AF
4340359-4340426 spi-1: BC
4361784-4361850 spi-1: 94
4362281-4362346 spi-1: BE
4362777-4362844 spi-1: FE
4363273-4363340 spi-1: FF
4363777-4363843 spi-1: FD
4364273-4364339 spi-1: FF
4364770-4364835 spi-1: AF
4365282-4365348 spi-1: 9C
4386195-4386261 spi-1: B4
4386691-4386757 spi-1: BE
4387188-4387253 spi-1: FE
4387684-4387751 spi-1: FF
4388180-4388246 spi-1: FD
4388684-4388750 spi-1: FF
4389180-4389246 spi-1: AF
4389677-4389744 spi-1: BC
4411598-4411664 spi-1: B4
4412095-4412162 spi-1: BE
4412591-4412658 spi-1: FE
4413095-4413161 spi-1: FF
4413591-4413657 spi-1: FD
4414088-4414153 spi-1: FF
4414584-4414651 spi-1: AF
4415080-4415147 spi-1: BC
4436009-4436075 spi-1: 94
4436506-4436571 spi-1: BE
4437002-4437069 spi-1: FE
4437498-4437565 spi-1: FF
4438002-4438068 spi-1: FD
4438498-4438564 spi-1: FF
4438995-4439060 spi-1: AF
4439491-4439558 spi-1: 9C
4461413-4461478 spi-1: B4
4461909-4461976 spi-1: BE
4462405-4462472 spi-1: FE
4462909-4462975 spi-1: FF
4463405-4463471 spi-1: FD
4463902-4463969 spi-1: FF
4464398-4464465 spi-1: AF
4464894-4464960 spi-1: BC
4486320-4486387 spi-1: B4
4486816-4486883 spi-1: BE
4487312-4487378 spi-1: FE
4487816-4487882 spi-1: FF
4488313-4488378 spi-1: FD
4488809-4488876 spi-1: FF
4489305-4489372 spi-1: AF
4489801-4489867 spi-1: BC
4511227-4511294 spi-1: B4
4511723-4511790 spi-1: BE
4512219-4512285 spi-1: FE
4512723-4512789 spi-1: FF
4513220-4513285 spi-1: FD
4513716-4513783 spi-1: FF
4514212-4514279 spi-1: AF
4514708-4514774 spi-1: BC
4535638-4535703 spi-1: B4
4536134-4536201 spi-1: BE
4536630-4536697 spi-1: FE
4537126-4537192 spi-1: FF
4537630-4537696 spi-1: FD
4538127-4538192 spi-1: FF
4538623-4538690 spi-1: AF
4539119-4539185 spi-1: BC
4561041-4561108 spi-1: B4
4561537-4561603 spi-1: BE
4562033-4562099 spi-1: FE
4562537-4562603 spi-1: FF
4563034-4563101 spi-1: FD
4563530-4563597 spi-1: FF
4564026-4564092 spi-1: AF
4564530-4564596 spi-1: BC
4585948-4586015 spi-1: B4
4586444-4586510 spi-1: BE
4586940-4587006 spi-1: FE
4587445-4587510 spi-1: FF
4587941-4588008 spi-1: FD
4588437-4588504 spi-1: FF
4588933-4588999 spi-1: AF
4589437-4589503 spi-1: BC
4610855-4610922 spi-1: B4
4611351-4611417 spi-1: BE
4611847-4611913 spi-1: FE
4612352-4612417 spi-1: FF
4612848-4612915 spi-1: FD
4613344-4613410 spi-1: FF
4613840-4613906 spi-1: AF
4614344-4614410 spi-1: BC
4635762-4635828 spi-1: B4
4636266-4636332 spi-1: BE
4636754-4636820 spi-1: FE
4637259-4637326 spi-1: FF
4637755-4637822 spi-1: FD
4638251-4638317 spi-1: FF
4638747-4638813 spi-1: AF
4639252-4639317 spi-1: BC
4660669-4660735 spi-1: B4
4661165-4661231 spi-1: BE
4661661-4661727 spi-1: FE
4662166-4662233 spi-1: FF
4662662-4662729 spi-1: FD
4663158-4663224 spi-1: FF
4663654-4663720 spi-1: AF
4664159-4664224 spi-1: BC
4685088-4685154 spi-1: B4
4685576-4685642 spi-1: BE
4686072-4686138 spi-1: FE
4686568-4686634 spi-1: FF
4687073-4687140 spi-1: FD
4687569-4687636 spi-1: FF
4688065-4688131 spi-1: AF
4688561-4688627 spi-1: BC
4709987-4710054 spi-1: B4
4710483-4710549 spi-1: BE
4710979-4711045 spi-1: FE
4711475-4711541 spi-1: FF
4711980-4712047 spi-1: FD
4712476-4712542 spi-1: FF
4712972-4713038 spi-1: AF
4713468-4713534 spi-1: BC
4735390-4735456 spi-1: B4
4735886-4735952 spi-1: BE
4736382-4736448 spi-1: FE
4736887-4736954 spi-1: FF
4737383-4737449 spi-1: FD
4737879-4737945 spi-1: FF
4738375-4738441 spi-1: AF
4738880-4738947 spi-1: BC
4759809-4759875 spi-1: B4
4760297-4760363 spi-1: BE
4760793-4760859 spi-1: FE
4761289-4761355 spi-1: FF
4761794-4761861 spi-1: FD
4762290-4762356 spi-1: FF
4762786-4762852 spi-1: AF
4763282-4763348 spi-1: BC
4784708-4784774 spi-1: B4
4785212-4785278 spi-1: BE
4785700-4785766 spi-1: FE
4786196-4786262 spi-1: FF
4786701-4786767 spi-1: FD
4787197-4787263 spi-1: FF
4787693-4787759 spi-1: AF
4788189-4788255 spi-1: BC
4810111-4810177 spi-1: B4
4810607-4810673 spi-1: BE
4811104-4811169 spi-1: FE
4811608-4811674 spi-1: FF
4812104-4812170 spi-1: FD
4812600-4812666 spi-1: FF
4813096-4813162 spi-1: AF
4813601-4813668 spi-1: BC
4835018-4835084 spi-1: B4
4835514-4835580 spi-1: BE
4836011-4836076 spi-1: FE
4836515-4836581 spi-1: FF
4837011-4837077 spi-1: FD
4837507-4837573 spi-1: FF
4838003-4838069 spi-1: AF
4838516-4838582 spi-1: BC
4859429-4859495 spi-1: B4
4859925-4859991 spi-1: BE
4860421-4860487 spi-1: FE
4860918-4860985 spi-1: FF
4861422-4861488 spi-1: FD
4861918-4861984 spi-1: FF
4862414-4862480 spi-1: AF
4862911-4862976 spi-1: BC
4884336-4884402 spi-1: B4
4884832-4884898 spi-1: BE
4885337-4885404 spi-1: FE
4885825-4885892 spi-1: FF
4886329-4886395 spi-1: FD
4886825-4886891 spi-1: FF
4887321-4887387 spi-1: AF
4887818-4887883 spi-1: BC
4909739-4909805 spi-1: B4
4910236-4910301 spi-1: BE
4910732-4910799 spi-1: FE
4911236-4911302 spi-1: FF
4911732-4911798 spi-1: FD
4912228-4912294 spi-1: FF
4912725-4912792 spi-1: AF
4913229-4913295 spi-1: BC
4934646-4934712 spi-1: B4
4935143-4935210 spi-1: BE
4935639-4935706 spi-1: FE
4936151-4936217 spi-1: FF
4936639-4936705 spi-1: FD
4937136-4937201 spi-1: FF
4937632-4937699 spi-1: AF
4938136-4938202 spi-1: BC
4959057-4959123 spi-1: B4
4959554-4959619 spi-1: BE
4960050-4960117 spi-1: FE
4960546-4960613 spi-1: FF
4961050-4961116 spi-1: FD
4961546-4961612 spi-1: FF
4962043-4962108 spi-1: AF
4962539-4962606 spi-1: BC
4984461-4984526 spi-1: B4
4984957-4985024 spi-1: BE
4985461-4985527 spi-1: FE
4985957-4986023 spi-1: FF
4986453-4986519 spi-1: FD
4986950-4987017 spi-1: FF
4987446-4987513 spi-1: AF
4987950-4988016 spi-1: BC
5009368-5009435 spi-1: B4
5009864-5009931 spi-1: BE
5010360-5010426 spi-1: FE
5010864-5010930 spi-1: FF
5011361-5011426 spi-1: FD
5011857-5011924 spi-1: FF
5012353-5012420 spi-1: AF
5012857-5012923 spi-1: BC
5034275-5034342 spi-1: B4
5034771-5034838 spi-1: BE
5035267-5035333 spi-1: FE
5035771-5035837 spi-1: FF
5036276-5036343 spi-1: FD
5036764-5036831 spi-1: FF
5037260-5037326 spi-1: AF
5037764-5037830 spi-1: BC
5059182-5059249 spi-1: B4
5059678-5059744 spi-1: BE
5060182-5060248 spi-1: FE
5060679-5060744 spi-1: FF
5061175-5061242 spi-1: FD
5061671-5061738 spi-1: FF
5062167-5062233 spi-1: AF
5062671-5062737 spi-1: BC
5083601-5083667 spi-1: B4
5084089-5084156 spi-1: BE
5084585-5084651 spi-1: FE
5085089-5085155 spi-1: FF
5085586-5085651 spi-1: FD
5086082-5086149 spi-1: FF
5086578-5086644 spi-1: AF
5087074-5087140 spi-1: BC
5108996-5109062 spi-1: B4
5109492-5109558 spi-1: BE
5109996-5110062 spi-1: FE
5110493-5110560 spi-1: FF
5110989-5111056 spi-1: FD
5111485-5111551 spi-1: FF
5111981-5112047 spi-1: AF
5112486-5112551 spi-1: BC
5133407-5133474 spi-1: B4
5133903-5133969 spi-1: BE
5134399-5134465 spi-1: FE
5134904-5134969 spi-1: FF
5135400-5135467 spi-1: FD
5135896-5135963 spi-1: FF
5136392-5136458 spi-1: AF
5136888-5136954 spi-1: BC
5158810-5158876 spi-1: B4
5159306-5159372 spi-1: BE
5159811-5159876 spi-1: FE
5160307-5160374 spi-1: FF
5160803-5160869 spi-1: FD
5161299-5161365 spi-1: FF
5161803-5161869 spi-1: AF
5162300-5162367 spi-1: BC
5183717-5183783 spi-1: B4
5184213-5184279 spi-1: BE
5184718-5184785 spi-1: FE
5185214-5185281 spi-1: FF
5185710-5185776 spi-1: FD
5186206-5186272 spi-1: FF
5186711-5186776 spi-1: AF
5187207-5187274 spi-1: BC
5208624-5208690 spi-1: B4
5209120-5209186 spi-1: BE
5209625-5209692 spi-1: FE
5210121-5210188 spi-1: FF
5210617-5210683 spi-1: FD
5211113-5211179 spi-1: FF
5211618-5211685 spi-1: AF
5212114-5212181 spi-1: BC
5233531-5233597 spi-1: B4
5234027-5234093 spi-1: BE
5234532-5234599 spi-1: FE
5235028-5235094 spi-1: FF
5235524-5235590 spi-1: FD
5236020-5236086 spi-1: FF
5236525-5236592 spi-1: AF
5237021-5237088 spi-1: BC
5258438-5258504 spi-1: B4
5258934-5259000 spi-1: BE
5259439-5259506 spi-1: FE
5259943-5260009 spi-1: FF
5260431-5260497 spi-1: FD
5260927-5260993 spi-1: FF
5261432-5261499 spi-1: AF
5261928-5261994 spi-1: BC
5283345-5283411 spi-1: B4
5283841-5283907 spi-1: BE
5284346-5284412 spi-1: FE
5284842-5284908 spi-1: FF
5285338-5285404 spi-1: FD
5285834-5285900 spi-1: FF
5286339-5286406 spi-1: AF
5286835-5286901 spi-1: BC
5308302-5308368 spi-1: B4
5308749-5308814 spi-1: BE
5309253-5309319 spi-1: FE
5309749-5309815 spi-1: FF
5310245-5310311 spi-1: FD
5310741-5310807 spi-1: FF
5311246-5311313 spi-1: AF
5311742-5311808 spi-1: BC
5333168-5333235 spi-1: B4
5333656-5333721 spi-1: BE
5334160-5334226 spi-1: FE
5334656-5334722 spi-1: FF
5335152-5335218 spi-1: FD
5335648-5335714 spi-1: FF
5336153-5336219 spi-1: AF
5336649-5336715 spi-1: BC
5358066-5358132 spi-1: B4
5358563-5358630 spi-1: BE
5359067-5359133 spi-1: FE
5359563-5359629 spi-1: FF
5360068-5360135 spi-1: FD
5360556-5360621 spi-1: FF
5361060-5361126 spi-1: AF
5361556-5361622 spi-1: BC
5382974-5383039 spi-1: B4
5383470-5383537 spi-1: BE
5383974-5384040 spi-1: FE
5384470-5384536 spi-1: FF
5384966-5385032 spi-1: FD
5385463-5385528 spi-1: FF
5385967-5386033 spi-1: AF
5386463-5386529 spi-1: BC
5407881-5407946 spi-1: B4
5408377-5408444 spi-1: BE
5408881-5408947 spi-1: FE
5409377-5409443 spi-1: FF
5409874-5409939 spi-1: FD
5410370-5410437 spi-1: FF
5410874-5410940 spi-1: AF
5411379-5411444 spi-1: BC
5432788-5432855 spi-1: B4
5433284-5433351 spi-1: BE
5433788-5433854 spi-1: FE
5434284-5434350 spi-1: FF
5434781-5434846 spi-1: FD
5435277-5435344 spi-1: FF
5435789-5435855 spi-1: AF
5436277-5436343 spi-1: BC
4192659-4199395 rnsMfd2-1: 0x27
4199395-4206131 rnsMfd2-1: 0xD8
4255135-4261871 rnsMfd2-1: 0xCA
4261871-4268048 rnsMfd2-1: 0x34
4268048-4273666 rnsMfd2-1: 0x28
4273666-4281520 rnsMfd2-1: 0xD7
4330591-4337327 rnsMfd2-1: 0xCA
4337327-4343504 rnsMfd2-1: 0x34
4343504-4350240 rnsMfd2-1: 0x27
4350240-4356975 rnsMfd2-1: 0xD8
4406195-4412931 rnsMfd2-1: 0xCA
4412931-4419108 rnsMfd2-1: 0x34
4419108-4424726 rnsMfd2-1: 0x28
4424726-4432580 rnsMfd2-1: 0xD7
