14156-14221 spi-1: B4
14652-14719 spi-1: BE
15148-15214 spi-1: FD
15644-15710 spi-1: FF
16148-16214 spi-1: FF
16645-16710 spi-1: FF
17141-17208 spi-1: AF
17637-17703 spi-1: BC
39062-39128 spi-1: B4
39558-39624 spi-1: BE
40054-40120 spi-1: FD
40551-40616 spi-1: FF
41055-41121 spi-1: FF
41551-41617 spi-1: FF
42047-42113 spi-1: AF
42543-42609 spi-1: BC
63977-64043 spi-1: 34
64465-64532 spi-1: BE
64961-65027 spi-1: FD
65474-65539 spi-1: FF
65978-66044 spi-1: FF
66458-66525 spi-1: FF
66954-67021 spi-1: CF
67450-67516 spi-1: 3C
88875-88941 spi-1: 34
89371-89437 spi-1: BE
89867-89933 spi-1: FD
90364-90429 spi-1: FF
90868-90934 spi-1: FF
91364-91430 spi-1: FF
91860-91926 spi-1: CF
92356-92422 spi-1: 3C
113782-113849 spi-1: 34
114278-114345 spi-1: BE
114848-114914 spi-1: FD
115270-115336 spi-1: FF
115775-115840 spi-1: FF
116279-116345 spi-1: FF
116767-116834 spi-1: CF
117263-117329 spi-1: 3C
138688-138754 spi-1: 34
139184-139250 spi-1: BE
139680-139746 spi-1: FD
140177-140244 spi-1: FF
140681-140747 spi-1: FF
141177-141243 spi-1: FF
141673-141739 spi-1: CF
142169-142235 spi-1: 3C
163595-163662 spi-1: 34
164091-164158 spi-1: BE
164587-164653 spi-1: FD
165083-165149 spi-1: FF
165588-165653 spi-1: FF
166109-166174 spi-1: FF
166580-166647 spi-1: CF
167076-167142 spi-1: 3C
188501-188567 spi-1: 34
188997-189063 spi-1: BE
189494-189559 spi-1: FD
189990-190057 spi-1: FF
190494-190560 spi-1: FF
190990-191056 spi-1: FF
191495-191562 spi-1: CF
191983-192048 spi-1: 3C
213408-213475 spi-1: 34
213904-213970 spi-1: BE
214400-214466 spi-1: FD
214962-215028 spi-1: FF
215401-215466 spi-1: FF
215897-215964 spi-1: FF
216393-216459 spi-1: CF
216889-216955 spi-1: 3C
238331-238398 spi-1: 34
238819-238886 spi-1: BE
239307-239372 spi-1: FD
239811-239877 spi-1: FF
240307-240373 spi-1: FF
240803-240869 spi-1: FF
241308-241375 spi-1: CF
241796-241861 spi-1: 3C
263221-263288 spi-1: 34
263717-263783 spi-1: BE
264213-264279 spi-1: FD
264717-264783 spi-1: FF
265214-265281 spi-1: FF
265710-265777 spi-1: FF
266222-266288 spi-1: CF
266702-266768 spi-1: 3C
288127-288193 spi-1: 34
288623-288689 spi-1: BE
289128-289195 spi-1: FD
289624-289690 spi-1: FF
290120-290186 spi-1: FF
290616-290682 spi-1: FF
291112-291178 spi-1: CF
291617-291684 spi-1: 3C
313050-313116 spi-1: 34
313530-313596 spi-1: BE
314026-314092 spi-1: FD
314531-314596 spi-1: FF
315085-315150 spi-1: FF
315523-315590 spi-1: FF
316019-316085 spi-1: CF
316523-316589 spi-1: 3C
337940-338006 spi-1: 34
338453-338519 spi-1: BE
338933-339000 spi-1: FD
339437-339503 spi-1: FF
339933-339999 spi-1: FF
340429-340495 spi-1: FF
340925-340991 spi-1: CF
341430-341496 spi-1: 3C
362855-362921 spi-1: 34
363343-363409 spi-1: BE
363839-363905 spi-1: FD
364344-364409 spi-1: FF
364840-364907 spi-1: FF
365336-365403 spi-1: FF
365832-365898 spi-1: CF
366345-366412 spi-1: 3C
387753-387819 spi-1: 34
388250-388315 spi-1: BE
388746-388813 spi-1: FD
389250-389316 spi-1: FF
389746-389812 spi-1: FF
390242-390308 spi-1: FF
390739-390804 spi-1: CF
391243-391309 spi-1: 3C
412660-412726 spi-1: 34
413173-413238 spi-1: BE
413652-413718 spi-1: FD
414157-414222 spi-1: FF
414653-414720 spi-1: FF
415207-415274 spi-1: FF
415645-415711 spi-1: CF
416149-416215 spi-1: 3C
437566-437632 spi-1: 34
438063-438128 spi-1: BE
438567-438633 spi-1: FD
439063-439129 spi-1: FF
439559-439625 spi-1: FF
440055-440121 spi-1: FF
440552-440617 spi-1: CF
441056-441122 spi-1: 3C
462473-462539 spi-1: 34
462969-463035 spi-1: BE
463465-463531 spi-1: FD
463970-464037 spi-1: FF
464466-464533 spi-1: FF
464962-465028 spi-1: FF
465458-465524 spi-1: CF
465963-466028 spi-1: 3C
487379-487445 spi-1: 34
487876-487943 spi-1: BE
488372-488439 spi-1: FD
488876-488942 spi-1: FF
489372-489438 spi-1: FF
489868-489934 spi-1: FF
490365-490432 spi-1: CF
490869-490935 spi-1: 3C
512782-512848 spi-1: 34
513295-513362 spi-1: BE
513783-513850 spi-1: FD
514279-514346 spi-1: FF
514775-514841 spi-1: FF
515329-515395 spi-1: FF
515776-515841 spi-1: CF
516272-516339 spi-1: 3C
537193-537258 spi-1: 34
537689-537756 spi-1: BE
538185-538252 spi-1: FD
538689-538755 spi-1: FF
539185-539251 spi-1: FF
539682-539747 spi-1: FF
540178-540245 spi-1: CF
540682-540748 spi-1: 3C
562116-562181 spi-1: 34
562595-562661 spi-1: BE
563091-563157 spi-1: FD
563596-563663 spi-1: FF
564092-564158 spi-1: FF
564588-564654 spi-1: FF
565084-565150 spi-1: CF
565589-565654 spi-1: 3C
587502-587569 spi-1: 34
587998-588065 spi-1: BE
588502-588568 spi-1: FD
588998-589064 spi-1: FF
589495-589560 spi-1: FF
589991-590058 spi-1: FF
590495-590561 spi-1: CF
590991-591057 spi-1: 3C
611912-611978 spi-1: 34
612408-612474 spi-1: BE
612904-612970 spi-1: FD
613409-613476 spi-1: FF
613905-613971 spi-1: FF
614401-614467 spi-1: FF
614897-614963 spi-1: CF
615443-615509 spi-1: 3C
636819-636884 spi-1: 34
637315-637382 spi-1: BE
637811-637877 spi-1: FD
638315-638381 spi-1: FF
638811-638877 spi-1: FF
639308-639373 spi-1: FF
639804-639871 spi-1: CF
640308-640374 spi-1: 3C
661733-661799 spi-1: 34
662230-662295 spi-1: BE
662717-662783 spi-1: FD
663222-663289 spi-1: FF
663718-663784 spi-1: FF
664214-664280 spi-1: FF
664710-664776 spi-1: CF
665215-665282 spi-1: 3C
686632-686699 spi-1: 34
687128-687195 spi-1: BE
687624-687690 spi-1: FD
688128-688194 spi-1: FF
688624-688690 spi-1: FF
689121-689188 spi-1: FF
689617-689684 spi-1: CF
690121-690187 spi-1: 3C
711538-711604 spi-1: 34
712034-712100 spi-1: BE
712530-712596 spi-1: FD
713035-713102 spi-1: FF
713531-713597 spi-1: FE
714027-714093 spi-1: FF
714523-714589 spi-1: CF
715028-715095 spi-1: 3C
736941-737008 spi-1: 34
737437-737503 spi-1: BE
737941-738007 spi-1: FD
738438-738503 spi-1: FF
738934-739001 spi-1: FE
739430-739497 spi-1: FF
739934-740000 spi-1: CF
740430-740496 spi-1: 3C
761351-761417 spi-1: 34
761847-761913 spi-1: BE
762360-762426 spi-1: FD
762848-762914 spi-1: FF
763344-763410 spi-1: FE
763840-763906 spi-1: FF
764336-764402 spi-1: CF
764841-764908 spi-1: 3C
786258-786325 spi-1: 34
786754-786821 spi-1: BE
787250-787316 spi-1: FD
787754-787820 spi-1: FF
788251-788316 spi-1: FE
788747-788814 spi-1: FF
789243-789310 spi-1: CF
789747-789813 spi-1: 3C
811164-811230 spi-1: 34
811660-811726 spi-1: BE
812165-812232 spi-1: FD
812661-812727 spi-1: FF
813157-813223 spi-1: FE
813653-813719 spi-1: FF
814158-814225 spi-1: CF
814654-814721 spi-1: 3C
836567-836633 spi-1: 34
837071-837137 spi-1: BE
837576-837643 spi-1: FD
838064-838131 spi-1: FF
838560-838627 spi-1: FE
839114-839181 spi-1: FF
839560-839626 spi-1: CF
840056-840122 spi-1: 3C
860977-861043 spi-1: 34
861473-861539 spi-1: BE
861978-862045 spi-1: FD
862474-862540 spi-1: FF
862970-863036 spi-1: FE
863466-863532 spi-1: FF
863971-864038 spi-1: CF
864467-864534 spi-1: 3C
886380-886446 spi-1: 34
886884-886950 spi-1: BE
887381-887446 spi-1: FD
887877-887944 spi-1: FF
888373-888440 spi-1: FE
888869-888935 spi-1: FF
889373-889439 spi-1: CF
889870-889935 spi-1: 3C
910790-910856 spi-1: 34
911286-911352 spi-1: BE
911791-911857 spi-1: FD
912287-912353 spi-1: FF
912783-912849 spi-1: FE
913279-913345 spi-1: FF
913784-913851 spi-1: CF
914280-914346 spi-1: 3C
935697-935764 spi-1: 34
936193-936259 spi-1: BE
936697-936763 spi-1: FD
937194-937259 spi-1: FF
937690-937757 spi-1: FE
938186-938253 spi-1: FF
938690-938756 spi-1: CF
939236-939302 spi-1: 3C
961100-961165 spi-1: 34
961604-961670 spi-1: BE
962100-962166 spi-1: FD
962596-962662 spi-1: FF
963092-963158 spi-1: FE
963597-963664 spi-1: FF
964093-964159 spi-1: CF
964589-964655 spi-1: 3C
985510-985576 spi-1: 34
986006-986072 spi-1: BE
986510-986576 spi-1: FD
987007-987072 spi-1: FF
987503-987570 spi-1: FE
987999-988065 spi-1: FF
988503-988569 spi-1: CF
988999-989065 spi-1: 3C
1010449-1010515 spi-1: 34
1010913-1010978 spi-1: BE
1011417-1011483 spi-1: FD
1011913-1011979 spi-1: FF
1012409-1012475 spi-1: FE
1012905-1012971 spi-1: FF
1013410-1013477 spi-1: CF
1013906-1013972 spi-1: 3C
1035323-1035389 spi-1: 34
1035819-1035885 spi-1: BE
1036323-1036389 spi-1: FD
1036820-1036887 spi-1: FF
1037316-1037383 spi-1: FE
1037812-1037878 spi-1: FF
1038316-1038382 spi-1: CF
1038812-1038878 spi-1: 3C
1060726-1060791 spi-1: 34
1061230-1061296 spi-1: BE
1061726-1061792 spi-1: FD
1062222-1062288 spi-1: FF
1062727-1062794 spi-1: FE
1063223-1063290 spi-1: FF
1063719-1063785 spi-1: CF
1064215-1064281 spi-1: 3C
1085136-1085202 spi-1: 34
1085632-1085698 spi-1: BE
1086137-1086202 spi-1: FD
1086633-1086700 spi-1: FF
1087129-1087196 spi-1: FE
1087625-1087691 spi-1: FF
1088129-1088195 spi-1: CF
1088626-1088691 spi-1: 3C
1110042-1110108 spi-1: 34
1110572-1110639 spi-1: BE
1111043-1111109 spi-1: FD
1111539-1111605 spi-1: FF
1112035-1112101 spi-1: FE
1112531-1112597 spi-1: FF
1113036-1113102 spi-1: CF
1113532-1113598 spi-1: 3C
1134949-1135015 spi-1: 34
1135445-1135511 spi-1: BE
1135950-1136015 spi-1: FD
1136446-1136513 spi-1: FF
1136942-1137009 spi-1: FE
1137438-1137504 spi-1: FF
1137942-1138008 spi-1: CF
1138439-1138504 spi-1: 3C
1159856-1159921 spi-1: 34
1160352-1160419 spi-1: BE
1160856-1160922 spi-1: FD
1161352-1161418 spi-1: FF
1161848-1161914 spi-1: FE
1162345-1162410 spi-1: FF
1162849-1162915 spi-1: CF
1163345-1163411 spi-1: 3C
1184762-1184828 spi-1: 34
1185258-1185324 spi-1: BE
1185763-1185830 spi-1: FD
1186259-1186326 spi-1: FF
1186755-1186821 spi-1: FE
1187334-1187401 spi-1: FF
1187755-1187821 spi-1: CF
1188252-1188317 spi-1: 3C
1209669-1209734 spi-1: 34
1210165-1210232 spi-1: BE
1210694-1210760 spi-1: FD
1211165-1211231 spi-1: FF
1211661-1211727 spi-1: FD
1212158-1212223 spi-1: FF
1212662-1212728 spi-1: CF
1213166-1213232 spi-1: 3C
1235071-1235137 spi-1: 34
1235576-1235643 spi-1: BE
1236072-1236139 spi-1: FD
1236568-1236634 spi-1: FF
1237064-1237130 spi-1: FD
1237569-1237634 spi-1: FF
1238065-1238132 spi-1: CF
1238561-1238628 spi-1: 3C
1259556-1259622 spi-1: 34
1259978-1260045 spi-1: BE
1260482-1260548 spi-1: FD
1260978-1261044 spi-1: FF
1261474-1261540 spi-1: FD
1261971-1262038 spi-1: FF
1262475-1262541 spi-1: CF
1262971-1263037 spi-1: 3C
1284893-1284958 spi-1: 34
1285389-1285456 spi-1: BE
1285885-1285952 spi-1: FD
1286381-1286447 spi-1: FF
1286877-1286943 spi-1: FD
1287448-1287515 spi-1: FF
1287878-1287945 spi-1: CF
1288374-1288441 spi-1: 3C
1309295-1309362 spi-1: 34
1309791-1309858 spi-1: BE
1310295-1310361 spi-1: FD
1310816-1310882 spi-1: FF
1311288-1311353 spi-1: FD
1311784-1311851 spi-1: FF
1312288-1312354 spi-1: CF
1312784-1312850 spi-1: 3C
1334201-1334267 spi-1: 34
1334697-1334763 spi-1: BE
1335202-1335269 spi-1: FD
1335698-1335765 spi-1: FF
1336202-1336268 spi-1: FD
1336690-1336756 spi-1: FF
1337195-1337260 spi-1: CF
1337691-1337758 spi-1: 3C
1359108-1359175 spi-1: 34
1359670-1359736 spi-1: BE
1360108-1360174 spi-1: FD
1360604-1360670 spi-1: FF
1361101-1361166 spi-1: FD
1361597-1361664 spi-1: FF
1362101-1362167 spi-1: CF
1362597-1362663 spi-1: 3C
1384014-1384080 spi-1: 34
1384510-1384576 spi-1: BE
1385015-1385082 spi-1: FD
1385511-1385577 spi-1: FF
1386007-1386073 spi-1: FD
1386503-1386569 spi-1: FF
1387008-1387075 spi-1: CF
1387570-1387636 spi-1: 3C
1408921-1408988 spi-1: 34
1409425-1409491 spi-1: BE
1409921-1409987 spi-1: FD
1410417-1410483 spi-1: FF
1410930-1410996 spi-1: FD
1411410-1411477 spi-1: FF
1411914-1411980 spi-1: CF
1412410-1412476 spi-1: 3C
1433827-1433893 spi-1: 34
1434332-1434399 spi-1: BE
1434828-1434895 spi-1: FD
1435324-1435390 spi-1: FF
1435820-1435886 spi-1: FD
1436316-1436382 spi-1: FF
1436821-1436888 spi-1: CF
1437317-1437384 spi-1: 3C
1458734-1458801 spi-1: 34
1459238-1459304 spi-1: BE
1459792-1459858 spi-1: FD
1460230-1460296 spi-1: FF
1460727-1460794 spi-1: FD
1461223-1461290 spi-1: FF
1461727-1461793 spi-1: CF
1462223-1462289 spi-1: 3C
1483640-1483706 spi-1: 34
1484145-1484212 spi-1: BE
1484641-1484708 spi-1: FD
1485137-1485203 spi-1: FF
1485633-1485699 spi-1: FD
1486129-1486195 spi-1: FF
1486634-1486701 spi-1: CF
1487130-1487197 spi-1: 3C
1508547-1508614 spi-1: 34
1509051-1509117 spi-1: BE
1509547-1509613 spi-1: FD
1510044-1510109 spi-1: FF
1510540-1510607 spi-1: FD
1511052-1511118 spi-1: FF
1511540-1511606 spi-1: CF
1512036-1512102 spi-1: 3C
1533453-1533519 spi-1: 34
1533958-1534025 spi-1: BE
1534454-1534520 spi-1: FD
1534950-1535016 spi-1: FF
1535446-1535512 spi-1: FD
1535951-1536016 spi-1: FF
1536447-1536514 spi-1: CF
1536943-1537009 spi-1: 3C
1558360-1558427 spi-1: 34
1558864-1558930 spi-1: BE
1559360-1559426 spi-1: FD
1559914-1559980 spi-1: FF
1560353-1560420 spi-1: FD
1560857-1560923 spi-1: FF
1561353-1561419 spi-1: CF
1561849-1561915 spi-1: 3C
1583275-1583342 spi-1: 34
1583771-1583838 spi-1: BE
1584267-1584333 spi-1: FD
1584763-1584829 spi-1: FF
1585259-1585325 spi-1: FD
1585764-1585831 spi-1: FF
1586260-1586327 spi-1: CF
1586756-1586822 spi-1: 3C
1608677-1608743 spi-1: 34
1609173-1609239 spi-1: BE
1609670-1609735 spi-1: FD
1610166-1610233 spi-1: FF
1610670-1610736 spi-1: FD
1611175-1611240 spi-1: FF
1611662-1611728 spi-1: CF
1612159-1612224 spi-1: 3C
1633079-1633145 spi-1: 34
1633584-1633651 spi-1: BE
1634080-1634146 spi-1: FD
1634576-1634642 spi-1: FF
1635072-1635138 spi-1: FD
1635577-1635644 spi-1: FF
1636073-1636140 spi-1: CF
1636569-1636635 spi-1: 3C
1658490-1658556 spi-1: 34
1658986-1659052 spi-1: BE
1659483-1659550 spi-1: FD
1660028-1660094 spi-1: FF
1660483-1660549 spi-1: FD
1660979-1661045 spi-1: FF
1661475-1661541 spi-1: CF
1661972-1662039 spi-1: 3C
1682892-1682958 spi-1: 34
1683397-1683464 spi-1: BE
1683893-1683959 spi-1: FD
1684389-1684455 spi-1: FF
1684885-1684951 spi-1: FD
1685390-1685457 spi-1: FF
1685886-1685953 spi-1: CF
1686382-1686448 spi-1: 3C
1707799-1707865 spi-1: 34
1708303-1708369 spi-1: BE
1708800-1708865 spi-1: FD
1709296-1709363 spi-1: FF
1709792-1709859 spi-1: FD
1710296-1710362 spi-1: FF
1710792-1710858 spi-1: CF
1711289-1711354 spi-1: 3C
1732705-1732771 spi-1: 34
1733210-1733276 spi-1: BE
1733706-1733772 spi-1: FD
1734202-1734268 spi-1: FF
1734698-1734764 spi-1: FC
1735203-1735270 spi-1: FF
1735699-1735765 spi-1: CF
1736195-1736261 spi-1: 3C
1758116-1758182 spi-1: 34
1758613-1758678 spi-1: BE
1759109-1759176 spi-1: FD
1759605-1759672 spi-1: FF
1760159-1760225 spi-1: FC
1760605-1760671 spi-1: FF
1761102-1761167 spi-1: CF
1761598-1761665 spi-1: 3C
1782519-1782584 spi-1: 34
1783023-1783089 spi-1: BE
1783519-1783585 spi-1: FD
1784015-1784081 spi-1: FF
1784511-1784577 spi-1: FC
1785016-1785083 spi-1: FF
1785512-1785578 spi-1: CF
1786008-1786074 spi-1: 3C
1807433-1807499 spi-1: 34
1807929-1807995 spi-1: BE
1808426-1808493 spi-1: FD
1808922-1808989 spi-1: FF
1809418-1809484 spi-1: FC
1809922-1809988 spi-1: FF
1810418-1810484 spi-1: CF
1810915-1810980 spi-1: 3C
1832332-1832397 spi-1: 34
1832836-1832902 spi-1: BE
1833332-1833398 spi-1: FD
1833828-1833894 spi-1: FF
1834324-1834390 spi-1: FC
1834829-1834896 spi-1: FF
1835325-1835391 spi-1: CF
1835821-1835887 spi-1: 3C
1857238-1857304 spi-1: 34
1857743-1857808 spi-1: BE
1858239-1858306 spi-1: FD
1858735-1858802 spi-1: FF
1859231-1859297 spi-1: FC
1859735-1859801 spi-1: FF
1860273-1860340 spi-1: CF
1860728-1860795 spi-1: 3C
1882649-1882715 spi-1: 34
1883145-1883211 spi-1: BE
1883641-1883707 spi-1: FD
1884146-1884213 spi-1: FF
1884642-1884709 spi-1: FC
1885138-1885204 spi-1: FF
1885634-1885700 spi-1: CF
1886130-1886196 spi-1: 3C
1907059-1907125 spi-1: 34
1907556-1907621 spi-1: BE
1908052-1908119 spi-1: FD
1908548-1908615 spi-1: FF
1909044-1909110 spi-1: FC
1909548-1909614 spi-1: FF
1910045-1910110 spi-1: CF
1910541-1910608 spi-1: 3C
1931966-1932032 spi-1: 34
1932462-1932528 spi-1: BE
1932958-1933024 spi-1: FD
1933454-1933520 spi-1: FF
1933951-1934016 spi-1: FC
1934455-1934521 spi-1: FF
1934951-1935017 spi-1: CF
1935447-1935513 spi-1: 3C
1956872-1956938 spi-1: 34
1957377-1957444 spi-1: BE
1957865-1957932 spi-1: FD
1958361-1958428 spi-1: FF
1958857-1958923 spi-1: FC
1959361-1959427 spi-1: FF
1959858-1959923 spi-1: CF
1960395-1960461 spi-1: 3C
1981779-1981845 spi-1: 34
1982275-1982341 spi-1: BE
1982771-1982837 spi-1: FD
1983267-1983333 spi-1: FF
1983821-1983887 spi-1: FC
1984268-1984334 spi-1: FF
1984764-1984830 spi-1: CF
1985260-1985326 spi-1: 3C
2006685-2006751 spi-1: 34
2007182-2007249 spi-1: BE
2007678-2007745 spi-1: FD
2008174-2008240 spi-1: FF
2008670-2008736 spi-1: FC
2009174-2009240 spi-1: FF
2009671-2009738 spi-1: CF
2010167-2010234 spi-1: 3C
2031592-2031658 spi-1: 34
2032088-2032154 spi-1: BE
2032584-2032650 spi-1: FD
2033080-2033146 spi-1: FF
2033577-2033642 spi-1: FC
2034081-2034147 spi-1: FF
2034577-2034643 spi-1: CF
2035073-2035139 spi-1: 3C
2056499-2056564 spi-1: 34
2056995-2057062 spi-1: BE
2057491-2057558 spi-1: FD
2057987-2058053 spi-1: FF
2058483-2058549 spi-1: FC
2058988-2059053 spi-1: FF
2059484-2059551 spi-1: CF
2059980-2060047 spi-1: 3C
2081901-2081967 spi-1: 34
2082397-2082463 spi-1: BE
2082893-2082959 spi-1: FD
2083398-2083464 spi-1: FF
2083944-2084011 spi-1: FC
2084398-2084464 spi-1: FF
2084886-2084952 spi-1: CF
2085382-2085448 spi-1: 3C
2106312-2106377 spi-1: 34
2106808-2106875 spi-1: BE
2107304-2107371 spi-1: FD
2107800-2107866 spi-1: FF
2108304-2108370 spi-1: FC
2108801-2108866 spi-1: FF
2109297-2109364 spi-1: CF
2109793-2109860 spi-1: 3C
2131218-2131284 spi-1: 34
2131714-2131780 spi-1: BE
2132210-2132276 spi-1: FD
2132707-2132772 spi-1: FF
2133211-2133277 spi-1: FC
2133707-2133773 spi-1: FF
2134203-2134269 spi-1: CF
2134699-2134765 spi-1: 3C
2156629-2156695 spi-1: 34
2157117-2157183 spi-1: BE
2157613-2157679 spi-1: FD
2158117-2158183 spi-1: FF
2158614-2158679 spi-1: FC
2159110-2159177 spi-1: FF
2159606-2159672 spi-1: CF
2160102-2160168 spi-1: 3C
2181031-2181097 spi-1: 34
2181527-2181593 spi-1: BE
2182023-2182089 spi-1: FD
2182520-2182585 spi-1: FF
2183024-2183090 spi-1: FC
2183520-2183586 spi-1: FF
2184058-2184123 spi-1: CF
2184512-2184578 spi-1: 3C
2205938-2206005 spi-1: 34
2206434-2206501 spi-1: BE
2206930-2206996 spi-1: FD
2207426-2207492 spi-1: FF
2207930-2207996 spi-1: FC
2208427-2208494 spi-1: FF
2208923-2208990 spi-1: CF
2209419-2209485 spi-1: 3C
2230844-2230910 spi-1: 34
2231340-2231406 spi-1: BE
2231836-2231902 spi-1: FD
2232333-2232398 spi-1: FF
2232837-2232903 spi-1: FB
2233333-2233399 spi-1: FF
2233829-2233895 spi-1: CF
2234325-2234391 spi-1: 3C
2255751-2255818 spi-1: 34
2256247-2256314 spi-1: BE
2256743-2256809 spi-1: FD
2257239-2257305 spi-1: FF
2257744-2257809 spi-1: FB
2258240-2258307 spi-1: FF
2258736-2258803 spi-1: CF
2259232-2259298 spi-1: 3C
2280657-2280723 spi-1: 34
2281153-2281219 spi-1: BE
2281649-2281715 spi-1: FD
2282146-2282213 spi-1: FF
2282650-2282716 spi-1: FB
2283146-2283212 spi-1: FF
2283642-2283708 spi-1: CF
2284180-2284247 spi-1: 3C
2306068-2306134 spi-1: 34
2306556-2306622 spi-1: BE
2307052-2307118 spi-1: FD
2307557-2307622 spi-1: FF
2308053-2308120 spi-1: FB
2308549-2308616 spi-1: FF
2309045-2309111 spi-1: CF
2309549-2309615 spi-1: 3C
2330470-2330536 spi-1: 34
2330966-2331032 spi-1: BE
2331463-2331528 spi-1: FD
2332041-2332107 spi-1: FF
2332463-2332529 spi-1: FB
2332959-2333025 spi-1: FF
2333455-2333521 spi-1: CF
2333952-2334017 spi-1: 3C
2355393-2355459 spi-1: 34
2355873-2355939 spi-1: BE
2356369-2356435 spi-1: FD
2356865-2356931 spi-1: FF
2357370-2357435 spi-1: FB
2357866-2357933 spi-1: FF
2358370-2358436 spi-1: CF
2358858-2358924 spi-1: 3C
2380283-2380349 spi-1: 34
2380779-2380845 spi-1: BE
2381276-2381341 spi-1: FD
2381772-2381839 spi-1: FF
2382276-2382342 spi-1: FB
2382772-2382838 spi-1: FF
2383268-2383334 spi-1: CF
2383765-2383830 spi-1: 3C
2405190-2405257 spi-1: 34
2405686-2405752 spi-1: BE
2406182-2406248 spi-1: FD
2406678-2406744 spi-1: FF
2407183-2407250 spi-1: FB
2407679-2407746 spi-1: FF
2408175-2408241 spi-1: CF
2408671-2408737 spi-1: 3C
2430096-2430162 spi-1: 34
2430592-2430658 spi-1: BE
2431089-2431154 spi-1: FD
2431585-2431652 spi-1: FF
2432155-2432221 spi-1: FB
2432585-2432651 spi-1: FF
2433081-2433147 spi-1: CF
2433594-2433660 spi-1: 3C
2455003-2455070 spi-1: 34
2455516-2455581 spi-1: BE
2456003-2456069 spi-1: FD
2456491-2456557 spi-1: FF
2456996-2457063 spi-1: FB
2457492-2457559 spi-1: FF
2457988-2458054 spi-1: CF
2458484-2458550 spi-1: 3C
2479909-2479975 spi-1: 34
2480405-2480471 spi-1: BE
2480902-2480969 spi-1: FD
2481398-2481465 spi-1: FF
2481902-2481968 spi-1: FB
2482398-2482464 spi-1: FF
2482894-2482960 spi-1: CF
2483391-2483458 spi-1: 3C
2504816-2504883 spi-1: 34
2505312-2505378 spi-1: BE
2505808-2505874 spi-1: FD
2506304-2506370 spi-1: FF
2506809-2506876 spi-1: FB
2507305-2507372 spi-1: FF
2507801-2507867 spi-1: CF
2508314-2508381 spi-1: 3C
2529722-2529788 spi-1: 34
2530219-2530284 spi-1: BE
2530715-2530782 spi-1: FD
2531211-2531278 spi-1: FF
2531715-2531781 spi-1: FB
2532278-2532343 spi-1: FF
2532708-2532773 spi-1: CF
2533204-2533271 spi-1: 3C
2554629-2554695 spi-1: 34
2555125-2555191 spi-1: BE
2555638-2555705 spi-1: FD
2556126-2556191 spi-1: FF
2556622-2556689 spi-1: FB
2557118-2557184 spi-1: FF
2557614-2557680 spi-1: CF
2558110-2558176 spi-1: 3C
2580032-2580097 spi-1: 34
2580528-2580595 spi-1: BE
2581024-2581091 spi-1: FD
2581528-2581594 spi-1: FF
2582024-2582090 spi-1: FB
2582521-2582586 spi-1: FF
2583017-2583084 spi-1: CF
2583521-2583587 spi-1: 3C
2604500-2604567 spi-1: 34
2604938-2605004 spi-1: BE
2605434-2605500 spi-1: FD
2605930-2605996 spi-1: FF
2606435-2606502 spi-1: FB
2606931-2606997 spi-1: FF
2607427-2607493 spi-1: CF
2607923-2607989 spi-1: 3C
2629348-2629414 spi-1: 34
2629845-2629910 spi-1: BE
2630341-2630408 spi-1: FD
2630837-2630904 spi-1: FF
2631341-2631407 spi-1: FB
2631837-2631903 spi-1: FF
2632391-2632457 spi-1: CF
2632830-2632897 spi-1: 3C
2654255-2654321 spi-1: 34
2654751-2654817 spi-1: BE
2655247-2655313 spi-1: FD
2655760-2655826 spi-1: FF
2656248-2656315 spi-1: FB
2656744-2656810 spi-1: FF
2657240-2657306 spi-1: CF
2657745-2657810 spi-1: 3C
2679161-2679227 spi-1: 34
2679658-2679725 spi-1: BE
2680154-2680221 spi-1: FD
2680650-2680716 spi-1: FF
2681154-2681220 spi-1: FB
2681650-2681716 spi-1: FF
2682147-2682214 spi-1: CF
2682643-2682710 spi-1: 3C
2704068-2704134 spi-1: 34
2704614-2704681 spi-1: BE
2705060-2705126 spi-1: FD
2705556-2705622 spi-1: FF
2706061-2706128 spi-1: FB
2706557-2706623 spi-1: FF
2707053-2707119 spi-1: CF
2707558-2707623 spi-1: 3C
2728975-2729040 spi-1: 34
2729471-2729538 spi-1: BE
2729967-2730034 spi-1: FD
2730463-2730529 spi-1: FF
2730967-2731033 spi-1: FB
2731464-2731529 spi-1: FF
2731960-2732027 spi-1: CF
2732514-2732581 spi-1: 3C
2753881-2753947 spi-1: 34
2754377-2754443 spi-1: BE
2754873-2754939 spi-1: FD
2755378-2755445 spi-1: FF
2755882-2755948 spi-1: FA
2756370-2756436 spi-1: FF
2756866-2756932 spi-1: CF
2757362-2757428 spi-1: 3C
2778788-2778853 spi-1: 34
2779284-2779351 spi-1: BE
2779780-2779847 spi-1: FD
2780284-2780350 spi-1: FF
2780780-2780846 spi-1: FA
2781277-2781342 spi-1: FF
2781773-2781840 spi-1: CF
2782269-2782336 spi-1: 3C
2803694-2803760 spi-1: 34
2804190-2804256 spi-1: BE
2804736-2804802 spi-1: FD
2805191-2805258 spi-1: FF
2805687-2805753 spi-1: FA
2806183-2806249 spi-1: FF
2806679-2806745 spi-1: CF
2807184-2807251 spi-1: 3C
2829097-2829164 spi-1: 34
2829593-2829660 spi-1: BE
2830097-2830163 spi-1: FD
2830602-2830669 spi-1: FF
2831090-2831155 spi-1: FA
2831586-2831653 spi-1: FF
2832090-2832156 spi-1: CF
2832636-2832702 spi-1: 3C
2853507-2853573 spi-1: 34
2854003-2854069 spi-1: BE
2854499-2854565 spi-1: FD
2855004-2855071 spi-1: FF
2855500-2855566 spi-1: FA
2855996-2856062 spi-1: FF
2856492-2856558 spi-1: CF
2856997-2857064 spi-1: 3C
2878414-2878481 spi-1: 34
2878910-2878977 spi-1: BE
2879406-2879472 spi-1: FD
2879910-2879976 spi-1: FF
2880406-2880472 spi-1: FA
2880903-2880970 spi-1: FF
2881399-2881466 spi-1: CF
2881903-2881969 spi-1: 3C
2903320-2903386 spi-1: 34
2903816-2903882 spi-1: BE
2904312-2904378 spi-1: FD
2904858-2904924 spi-1: FF
2905313-2905379 spi-1: FA
2905809-2905875 spi-1: FF
2906305-2906371 spi-1: CF
2906810-2906877 spi-1: 3C
2928227-2928294 spi-1: 34
2928723-2928790 spi-1: BE
2929219-2929285 spi-1: FD
2929723-2929789 spi-1: FF
2930220-2930285 spi-1: FA
2930716-2930783 spi-1: FF
2931212-2931279 spi-1: CF
2931716-2931782 spi-1: 3C
2953133-2953199 spi-1: 34
2953629-2953695 spi-1: BE
2954134-2954201 spi-1: FD
2954630-2954697 spi-1: FF
2955126-2955192 spi-1: FA
2955622-2955688 spi-1: FF
2956118-2956184 spi-1: CF
2956623-2956690 spi-1: 3C
2978040-2978107 spi-1: 34
2978536-2978603 spi-1: BE
2979032-2979098 spi-1: FD
2979536-2979602 spi-1: FF
2980033-2980098 spi-1: FA
2980529-2980596 spi-1: FF
2981025-2981092 spi-1: CF
2981529-2981595 spi-1: 3C
3003442-3003508 spi-1: 34
3003938-3004004 spi-1: BE
3004443-3004509 spi-1: FD
3004980-3005046 spi-1: FF
3005435-3005501 spi-1: FA
3005931-3005997 spi-1: FF
3006436-3006503 spi-1: CF
3006932-3006998 spi-1: 3C
3027853-3027920 spi-1: 34
3028349-3028416 spi-1: BE
3028845-3028911 spi-1: FD
3029349-3029415 spi-1: FF
3029846-3029911 spi-1: FA
3030342-3030409 spi-1: FF
3030838-3030905 spi-1: CF
3031342-3031408 spi-1: 3C
3052759-3052825 spi-1: 34
3053255-3053321 spi-1: BE
3053752-3053817 spi-1: FD
3054264-3054330 spi-1: FF
3054752-3054818 spi-1: FA
3055248-3055314 spi-1: FF
3055744-3055810 spi-1: CF
3056249-3056316 spi-1: 3C
3077666-3077733 spi-1: 34
3078162-3078228 spi-1: BE
3078658-3078724 spi-1: FD
3079162-3079228 spi-1: FF
3079659-3079724 spi-1: FA
3080155-3080222 spi-1: FF
3080651-3080717 spi-1: CF
3081155-3081221 spi-1: 3C
3102572-3102638 spi-1: 34
3103068-3103134 spi-1: BE
3103565-3103630 spi-1: FD
3104069-3104135 spi-1: FF
3104565-3104631 spi-1: FA
3105094-3105160 spi-1: FF
3105557-3105623 spi-1: CF
3106062-3106129 spi-1: 3C
3127479-3127546 spi-1: 34
3127975-3128041 spi-1: BE
3128521-3128588 spi-1: FD
3128975-3129041 spi-1: FF
3129480-3129546 spi-1: FA
3129968-3130035 spi-1: FF
3130464-3130530 spi-1: CF
3130968-3131034 spi-1: 3C
3152385-3152451 spi-1: 34
3152881-3152947 spi-1: BE
3153378-3153443 spi-1: FD
3153882-3153948 spi-1: FF
3154378-3154444 spi-1: FA
3154874-3154940 spi-1: FF
3155370-3155436 spi-1: CF
3155875-3155942 spi-1: 3C
3177292-3177359 spi-1: 34
3177788-3177854 spi-1: BE
3178284-3178350 spi-1: FD
3178789-3178854 spi-1: FF
3179285-3179352 spi-1: FA
3179797-3179863 spi-1: FF
3180277-3180343 spi-1: CF
3180781-3180847 spi-1: 3C
3202694-3202760 spi-1: 34
3203191-3203258 spi-1: BE
3203695-3203761 spi-1: FD
3204191-3204257 spi-1: FF
3204687-3204753 spi-1: FA
3205217-3205282 spi-1: FF
3205688-3205754 spi-1: CF
3206184-3206250 spi-1: 3C
3227105-3227172 spi-1: 34
3227601-3227667 spi-1: BE
3228097-3228163 spi-1: FD
3228643-3228709 spi-1: FF
3229098-3229165 spi-1: F9
3229594-3229661 spi-1: FF
3230090-3230156 spi-1: CF
3230594-3230660 spi-1: 3C
3252508-3252573 spi-1: 34
3253004-3253071 spi-1: BE
3253508-3253574 spi-1: FD
3254004-3254070 spi-1: FF
3254500-3254566 spi-1: F9
3254997-3255062 spi-1: FF
3255501-3255567 spi-1: CF
3255997-3256063 spi-1: 3C
3276918-3276984 spi-1: 34
3277414-3277480 spi-1: BE
3277910-3277976 spi-1: FD
3278415-3278480 spi-1: FF
3278911-3278978 spi-1: F9
3279407-3279473 spi-1: FF
3279920-3279985 spi-1: CF
3280407-3280473 spi-1: 3C
3301824-3301890 spi-1: 34
3302321-3302386 spi-1: BE
3302817-3302884 spi-1: FD
3303321-3303387 spi-1: FF
3303817-3303883 spi-1: F9
3304313-3304379 spi-1: FF
3304810-3304875 spi-1: CF
3305339-3305406 spi-1: 3C
3327244-3327309 spi-1: 34
3327723-3327789 spi-1: BE
3328228-3328295 spi-1: FD
3328765-3328831 spi-1: FF
3329220-3329286 spi-1: F9
3329716-3329782 spi-1: FF
3330220-3330286 spi-1: CF
3330717-3330784 spi-1: 3C
3351637-3351703 spi-1: 34
3352134-3352199 spi-1: BE
3352638-3352704 spi-1: FD
3353134-3353200 spi-1: FF
3353630-3353696 spi-1: F9
3354126-3354192 spi-1: FF
3354623-3354688 spi-1: CF
3355127-3355193 spi-1: 3C
3376544-3376610 spi-1: 34
3377040-3377106 spi-1: BE
3377545-3377610 spi-1: FD
3378041-3378108 spi-1: FF
3378537-3378604 spi-1: F9
3379033-3379099 spi-1: FF
3379529-3379595 spi-1: CF
3380050-3380116 spi-1: 3C
3401450-3401516 spi-1: 34
3401947-3402014 spi-1: BE
3402451-3402517 spi-1: FD
3402947-3403013 spi-1: FF
3403443-3403509 spi-1: F9
3403939-3404005 spi-1: FF
3404436-3404503 spi-1: CF
3404940-3405006 spi-1: 3C
3426357-3426423 spi-1: 34
3426853-3426919 spi-1: BE
3427358-3427423 spi-1: FD
3427854-3427921 spi-1: FF
3428350-3428417 spi-1: F9
3428887-3428953 spi-1: FF
3429350-3429416 spi-1: CF
3429847-3429912 spi-1: 3C
3451272-3451339 spi-1: 34
3451760-3451827 spi-1: BE
3452264-3452330 spi-1: FD
3452760-3452826 spi-1: FF
3453256-3453322 spi-1: F9
3453753-3453818 spi-1: FF
3454257-3454323 spi-1: CF
3454753-3454819 spi-1: 3C
3476170-3476236 spi-1: 34
3476741-3476806 spi-1: BE
3477171-3477236 spi-1: FD
3477667-3477734 spi-1: FF
3478163-3478230 spi-1: F9
3478659-3478725 spi-1: FF
3479163-3479229 spi-1: CF
3479660-3479725 spi-1: 3C
3501077-3501142 spi-1: 34
3501573-3501640 spi-1: BE
3502077-3502143 spi-1: FD
3502573-3502639 spi-1: FF
3503069-3503135 spi-1: F9
3503566-3503631 spi-1: FF
3504070-3504136 spi-1: CF
3504566-3504632 spi-1: 3C
3525983-3526049 spi-1: 34
3526479-3526545 spi-1: BE
3526984-3527051 spi-1: FD
3527480-3527547 spi-1: FF
3527976-3528042 spi-1: F9
3528472-3528538 spi-1: FF
3529001-3529067 spi-1: CF
3529473-3529538 spi-1: 3C
3550890-3550955 spi-1: 34
3551386-3551453 spi-1: BE
3551890-3551956 spi-1: FD
3552386-3552452 spi-1: FF
3552882-3552948 spi-1: F9
3553379-3553444 spi-1: FF
3553883-3553949 spi-1: CF
3554379-3554445 spi-1: 3C
3575796-3575862 spi-1: 34
3576292-3576358 spi-1: BE
3576863-3576930 spi-1: FD
3577293-3577360 spi-1: FF
3577789-3577855 spi-1: F9
3578285-3578351 spi-1: FF
3578790-3578855 spi-1: CF
3579286-3579353 spi-1: 3C
3600703-3600768 spi-1: 34
3601199-3601266 spi-1: BE
3601703-3601769 spi-1: FD
3602199-3602265 spi-1: FF
3602695-3602761 spi-1: F9
3603192-3603257 spi-1: FF
3603696-3603762 spi-1: CF
3604192-3604258 spi-1: 3C
3625609-3625675 spi-1: 34
3626105-3626171 spi-1: BE
3626610-3626677 spi-1: FD
3627106-3627173 spi-1: FF
3627602-3627668 spi-1: F9
3628098-3628164 spi-1: FF
3628603-3628668 spi-1: CF
3629123-3629189 spi-1: 3C
3651012-3651079 spi-1: 34
3651516-3651582 spi-1: BE
3652012-3652078 spi-1: FD
3652508-3652574 spi-1: FF
3653005-3653072 spi-1: F9
3653509-3653575 spi-1: FF
3654005-3654071 spi-1: CF
3654501-3654567 spi-1: 3C
3675422-3675488 spi-1: 34
3675918-3675984 spi-1: BE
3676423-3676490 spi-1: FD
3676985-3677051 spi-1: FF
3677415-3677481 spi-1: F9
3677911-3677977 spi-1: FF
3678416-3678481 spi-1: CF
3678912-3678979 spi-1: 3C
3700337-3700403 spi-1: 34
3700825-3700892 spi-1: BE
3701329-3701395 spi-1: FD
3701825-3701891 spi-1: FF
3702322-3702387 spi-1: F9
3702818-3702885 spi-1: FF
3703322-3703388 spi-1: CF
3703818-3703884 spi-1: 3C
3725235-3725301 spi-1: 34
3725740-3725805 spi-1: BE
3726236-3726303 spi-1: FD
3726732-3726798 spi-1: FF
3727228-3727294 spi-1: F9
3727724-3727790 spi-1: FF
3728229-3728294 spi-1: CF
3728725-3728792 spi-1: 3C
3750142-3750209 spi-1: 34
3750638-3750705 spi-1: BE
3751142-3751208 spi-1: FD
3751638-3751704 spi-1: FF
3752135-3752200 spi-1: F8
3752631-3752698 spi-1: FF
3753135-3753201 spi-1: CF
3753631-3753697 spi-1: 3C
3775048-3775114 spi-1: 34
3775544-3775610 spi-1: BE
3776049-3776116 spi-1: FD
3776545-3776611 spi-1: FF
3777099-3777165 spi-1: F8
3777537-3777603 spi-1: FF
3778042-3778109 spi-1: CF
3778538-3778605 spi-1: 3C
3800459-3800525 spi-1: 34
3800955-3801021 spi-1: BE
3801451-3801517 spi-1: FD
3801948-3802013 spi-1: FF
3802444-3802511 spi-1: F8
3802948-3803014 spi-1: FF
3803444-3803510 spi-1: CF
3803940-3804006 spi-1: 3C
3824861-3824927 spi-1: 34
3825357-3825423 spi-1: BE
3825862-3825929 spi-1: FD
3826358-3826424 spi-1: FF
3826854-3826920 spi-1: F8
3827350-3827416 spi-1: FF
3827855-3827922 spi-1: CF
3828351-3828418 spi-1: 3C
3849768-3849835 spi-1: 34
3850264-3850330 spi-1: BE
3850768-3850834 spi-1: FD
3851264-3851330 spi-1: FF
3851761-3851826 spi-1: F8
3852257-3852324 spi-1: FF
3852761-3852827 spi-1: CF
3853257-3853323 spi-1: 3C
3875179-3875246 spi-1: 34
3875683-3875749 spi-1: BE
3876171-3876237 spi-1: FD
3876667-3876733 spi-1: FF
3877238-3877305 spi-1: F8
3877668-3877735 spi-1: FF
3878164-3878231 spi-1: CF
3878660-3878726 spi-1: 3C
3899589-3899655 spi-1: 34
3900077-3900143 spi-1: BE
3900581-3900647 spi-1: FD
3901078-3901143 spi-1: FF
3901574-3901641 spi-1: F8
3902070-3902137 spi-1: FF
3902574-3902640 spi-1: CF
3903070-3903136 spi-1: 3C
3924487-3924553 spi-1: 34
3924983-3925049 spi-1: BE
3925488-3925555 spi-1: FD
3925984-3926050 spi-1: FF
3926480-3926546 spi-1: F8
3926976-3927042 spi-1: FF
3927481-3927548 spi-1: CF
3927977-3928044 spi-1: 3C
3949898-3949964 spi-1: 34
3950394-3950460 spi-1: BE
3950891-3950956 spi-1: FD
3951395-3951461 spi-1: FF
3951883-3951950 spi-1: F8
3952387-3952453 spi-1: FF
3952883-3952949 spi-1: CF
3953380-3953445 spi-1: 3C
3974300-3974366 spi-1: 34
3974805-3974872 spi-1: BE
3975301-3975367 spi-1: FD
3975797-3975863 spi-1: FF
3976293-3976359 spi-1: F8
3976789-3976855 spi-1: FF
3977343-3977409 spi-1: CF
3977790-3977856 spi-1: 3C
3999215-3999281 spi-1: 34
3999711-3999777 spi-1: BE
4000207-4000273 spi-1: FD
4000704-4000769 spi-1: FF
4001200-4001267 spi-1: F8
4001696-4001763 spi-1: FF
4002200-4002266 spi-1: CF
4002696-4002762 spi-1: 3C
4024618-4024685 spi-1: 34
4025114-4025180 spi-1: BE
4025610-4025676 spi-1: FD
4026106-4026172 spi-1: FF
4026602-4026668 spi-1: F8
4027107-4027174 spi-1: FF
4027611-4027677 spi-1: CF
4028099-4028165 spi-1: 3C
4049020-4049086 spi-1: 34
4049574-4049640 spi-1: BE
4050020-4050086 spi-1: FD
4050517-4050582 spi-1: FF
4051013-4051080 spi-1: F8
4051509-4051575 spi-1: FF
4052013-4052079 spi-1: CF
4052509-4052575 spi-1: 3C
4074431-4074498 spi-1: 34
4074927-4074993 spi-1: BE
4075431-4075497 spi-1: FD
4075919-4075985 spi-1: FF
4076424-4076491 spi-1: F8
4076920-4076987 spi-1: FF
4077466-4077531 spi-1: CF
4077912-4077978 spi-1: 3C
4098833-4098899 spi-1: 34
4099337-4099403 spi-1: BE
4099833-4099899 spi-1: FD
4100330-4100397 spi-1: FF
4100826-4100893 spi-1: F8
4101330-4101396 spi-1: FF
4101826-4101892 spi-1: CF
4102322-4102388 spi-1: 3C
4123739-4123805 spi-1: 34
4124244-4124311 spi-1: BE
4124740-4124806 spi-1: FD
4125236-4125302 spi-1: FF
4125732-4125798 spi-1: F8
4126237-4126304 spi-1: FF
4126733-4126800 spi-1: CF
4127229-4127295 spi-1: 3C
4148654-4148720 spi-1: 34
4149150-4149216 spi-1: BE
4149680-4149745 spi-1: FD
4150143-4150210 spi-1: FF
4150639-4150706 spi-1: F8
4151143-4151209 spi-1: FF
4151639-4151705 spi-1: CF
4152136-4152201 spi-1: 3C
4173552-4173618 spi-1: 34
4174057-4174124 spi-1: BE
4174553-4174619 spi-1: FD
4175049-4175115 spi-1: FF
4175545-4175611 spi-1: F8
4176050-4176117 spi-1: FF
4176546-4176613 spi-1: CF
4177042-4177108 spi-1: 3C
4198459-4198525 spi-1: 34
4198963-4199029 spi-1: BE
4199460-4199525 spi-1: FD
4199956-4200023 spi-1: FF
4200452-4200519 spi-1: F8
4200956-4201022 spi-1: FF
4201452-4201518 spi-1: CF
4201949-4202014 spi-1: 3C
4223365-4223431 spi-1: 34
4223870-4223936 spi-1: BE
4224399-4224465 spi-1: FD
4224862-4224928 spi-1: FF
4225358-4225424 spi-1: F8
4225863-4225930 spi-1: FF
4226359-4226425 spi-1: CF
4226855-4226921 spi-1: 3C
4248272-4248338 spi-1: 34
4248776-4248842 spi-1: BE
4249273-4249338 spi-1: FD
4249802-4249869 spi-1: FF
4250265-4250332 spi-1: F7
4250769-4250835 spi-1: FF
4251265-4251331 spi-1: CF
4251762-4251827 spi-1: 3C
4273187-4273254 spi-1: 34
4273683-4273749 spi-1: BE
4274179-4274245 spi-1: FD
4274675-4274741 spi-1: FF
4275171-4275237 spi-1: F7
4275676-4275743 spi-1: FF
4276172-4276238 spi-1: CF
4276668-4276734 spi-1: 3C
4298589-4298655 spi-1: 34
4299086-4299151 spi-1: BE
4299582-4299649 spi-1: FD
4300078-4300144 spi-1: FF
4300582-4300648 spi-1: F7
4301078-4301144 spi-1: FF
4301575-4301640 spi-1: CF
4302071-4302138 spi-1: 3C
4322992-4323057 spi-1: 34
4323496-4323562 spi-1: BE
4323992-4324058 spi-1: FD
4324521-4324587 spi-1: FF
4324984-4325050 spi-1: F7
4325489-4325556 spi-1: FF
4325985-4326051 spi-1: CF
4326481-4326547 spi-1: 3C
4347898-4347964 spi-1: 34
4348402-4348468 spi-1: BE
4348899-4348966 spi-1: FD
4349395-4349462 spi-1: FF
4349924-4349990 spi-1: F7
4350395-4350461 spi-1: FF
4350891-4350957 spi-1: CF
4351388-4351455 spi-1: 3C
4372805-4372870 spi-1: 34
4373350-4373416 spi-1: BE
4373805-4373871 spi-1: FD
4374301-4374367 spi-1: FF
4374797-4374863 spi-1: F7
4375302-4375369 spi-1: FF
4375798-4375864 spi-1: CF
4376294-4376360 spi-1: 3C
4397711-4397777 spi-1: 34
4398216-4398281 spi-1: BE
4398712-4398779 spi-1: FD
4399208-4399275 spi-1: FF
4399704-4399770 spi-1: F7
4400208-4400274 spi-1: FF
4400705-4400770 spi-1: CF
4401201-4401268 spi-1: 3C
4422626-4422692 spi-1: 34
4423122-4423188 spi-1: BE
4423618-4423684 spi-1: FD
4424114-4424180 spi-1: FF
4424644-4424709 spi-1: F7
4425115-4425181 spi-1: FF
4425611-4425677 spi-1: CF
4426107-4426173 spi-1: 3C
4447532-4447598 spi-1: 34
4448029-4448094 spi-1: BE
4448525-4448592 spi-1: FD
4449021-4449088 spi-1: FF
4449517-4449583 spi-1: F7
4450046-4450112 spi-1: FF
4450518-4450583 spi-1: CF
4451014-4451081 spi-1: 3C
4472439-4472505 spi-1: 34
4472935-4473001 spi-1: BE
4473473-4473538 spi-1: FD
4473927-4473993 spi-1: FF
4474424-4474489 spi-1: F7
4474928-4474994 spi-1: FF
4475424-4475490 spi-1: CF
4475920-4475986 spi-1: 3C
4497842-4497907 spi-1: 34
4498338-4498405 spi-1: BE
4498834-4498901 spi-1: FD
4499330-4499396 spi-1: FF
4499834-4499900 spi-1: F7
4500331-4500396 spi-1: FF
4500827-4500894 spi-1: CF
4501323-4501390 spi-1: 3C
4522252-4522318 spi-1: 34
4522748-4522814 spi-1: BE
4523244-4523310 spi-1: FD
4523740-4523806 spi-1: FF
4524237-4524302 spi-1: F7
4524741-4524807 spi-1: FF
4525237-4525303 spi-1: CF
4525733-4525799 spi-1: 3C
4547158-4547224 spi-1: 34
4547655-4547720 spi-1: BE
4548151-4548218 spi-1: FD
4548647-4548713 spi-1: FF
4549143-4549209 spi-1: F7
4549647-4549713 spi-1: FF
4550160-4550226 spi-1: CF
4550640-4550707 spi-1: 3C
4572065-4572131 spi-1: 34
4572561-4572627 spi-1: BE
4573057-4573123 spi-1: FD
4573586-4573652 spi-1: FF
4574050-4574115 spi-1: F7
4574554-4574620 spi-1: FF
4575050-4575116 spi-1: CF
4575546-4575612 spi-1: 3C
4596971-4597037 spi-1: 34
4597468-4597535 spi-1: BE
4597964-4598031 spi-1: FD
4598460-4598526 spi-1: FF
4598964-4599030 spi-1: F7
4599460-4599526 spi-1: FF
4599957-4600024 spi-1: CF
4600453-4600520 spi-1: 3C
4622374-4622440 spi-1: 34
4622870-4622936 spi-1: BE
4623366-4623432 spi-1: FD
4623863-4623928 spi-1: FF
4624367-4624433 spi-1: F7
4624863-4624929 spi-1: FF
4625359-4625425 spi-1: CF
4625855-4625921 spi-1: 3C
4646785-4646850 spi-1: 34
4647281-4647348 spi-1: BE
4647777-4647844 spi-1: FD
4648273-4648339 spi-1: FF
4648769-4648835 spi-1: F7
4649274-4649339 spi-1: FF
4649770-4649837 spi-1: CF
4650291-4650358 spi-1: 3C
4671691-4671757 spi-1: 34
4672187-4672253 spi-1: BE
4672683-4672749 spi-1: FD
4673179-4673245 spi-1: FF
4673709-4673776 spi-1: F7
4674180-4674246 spi-1: FF
4674676-4674742 spi-1: CF
4675172-4675238 spi-1: 3C
4696606-4696673 spi-1: 34
4697094-4697161 spi-1: BE
4697590-4697657 spi-1: FD
4698086-4698152 spi-1: FF
4698590-4698656 spi-1: F7
4699087-4699152 spi-1: FF
4699583-4699650 spi-1: CF
4700079-4700146 spi-1: 3C
4721562-4721628 spi-1: 34
4722000-4722066 spi-1: BE
4722496-4722562 spi-1: FD
4722993-4723058 spi-1: FF
4723497-4723563 spi-1: F7
4723993-4724059 spi-1: FF
4724489-4724555 spi-1: CF
4725002-4725068 spi-1: 3C
4746411-4746476 spi-1: 34
4746907-4746974 spi-1: BE
4747403-4747470 spi-1: FD
4747899-4747965 spi-1: FF
4748403-4748469 spi-1: F6
4748900-4748965 spi-1: FF
4749396-4749463 spi-1: CF
4749892-4749959 spi-1: 3C
4771813-4771879 spi-1: 34
4772309-4772375 spi-1: BE
4772806-4772871 spi-1: FD
4773310-4773376 spi-1: FF
4773831-4773897 spi-1: F6
4774302-4774368 spi-1: FF
4774798-4774864 spi-1: CF
4775303-4775370 spi-1: 3C
4796224-4796289 spi-1: 34
4796720-4796787 spi-1: BE
4797216-4797282 spi-1: FD
4797712-4797778 spi-1: FF
4798216-4798282 spi-1: F6
4798713-4798778 spi-1: FF
4799209-4799276 spi-1: CF
4799705-4799771 spi-1: 3C
4821130-4821196 spi-1: 34
4821684-4821750 spi-1: BE
4822122-4822188 spi-1: FD
4822619-4822684 spi-1: FF
4823123-4823189 spi-1: F6
4823627-4823693 spi-1: FF
4824115-4824181 spi-1: CF
4824611-4824677 spi-1: 3C
4846533-4846600 spi-1: 34
4847029-4847095 spi-1: BE
4847525-4847591 spi-1: FD
4848029-4848095 spi-1: FF
4848526-4848593 spi-1: F6
4849022-4849089 spi-1: FF
4849518-4849584 spi-1: CF
4850022-4850088 spi-1: 3C
4870943-4871009 spi-1: 34
4871439-4871505 spi-1: BE
4871935-4872001 spi-1: FD
4872432-4872497 spi-1: FF
4872936-4873002 spi-1: F6
4873432-4873498 spi-1: FF
4873953-4874019 spi-1: CF
4874424-4874490 spi-1: 3C
4895850-4895917 spi-1: 34
4896346-4896413 spi-1: BE
4896842-4896908 spi-1: FD
4897338-4897404 spi-1: FF
4897843-4897908 spi-1: F6
4898339-4898406 spi-1: FF
4898835-4898902 spi-1: CF
4899331-4899397 spi-1: 3C
4921252-4921318 spi-1: 34
4921806-4921872 spi-1: BE
4922245-4922312 spi-1: FD
4922749-4922815 spi-1: FF
4923245-4923311 spi-1: F6
4923741-4923807 spi-1: FF
4924237-4924303 spi-1: CF
4924742-4924808 spi-1: 3C
4945671-4945737 spi-1: 34
4946159-4946226 spi-1: BE
4946655-4946721 spi-1: FD
4947151-4947217 spi-1: FF
4947656-4947721 spi-1: F6
4948152-4948219 spi-1: FF
4948648-4948715 spi-1: CF
4949144-4949210 spi-1: 3C
4970569-4970635 spi-1: 34
4971065-4971131 spi-1: BE
4971562-4971627 spi-1: FD
4972058-4972125 spi-1: FF
4972562-4972628 spi-1: F6
4973058-4973124 spi-1: FF
4973554-4973620 spi-1: CF
4974067-4974133 spi-1: 3C
4995972-4996039 spi-1: 34
4996468-4996534 spi-1: BE
4996964-4997030 spi-1: FD
4997469-4997534 spi-1: FF
4997965-4998032 spi-1: F6
4998461-4998528 spi-1: FF
4998957-4999023 spi-1: CF
4999461-4999527 spi-1: 3C
5020382-5020448 spi-1: 34
5020878-5020944 spi-1: BE
5021375-5021440 spi-1: FD
5021920-5021986 spi-1: FF
5022375-5022441 spi-1: F6
5022871-5022937 spi-1: FF
5023367-5023433 spi-1: CF
5023864-5023929 spi-1: 3C
5045289-5045356 spi-1: 34
5045785-5045851 spi-1: BE
5046281-5046347 spi-1: FD
5046777-5046843 spi-1: FF
5047282-5047347 spi-1: F6
5047778-5047845 spi-1: FF
5048282-5048348 spi-1: CF
5048770-5048836 spi-1: 3C
5070195-5070261 spi-1: 34
5070691-5070757 spi-1: BE
5071188-5071253 spi-1: FD
5071684-5071751 spi-1: FF
5072188-5072254 spi-1: F6
5072684-5072750 spi-1: FF
5073180-5073246 spi-1: CF
5073677-5073742 spi-1: 3C
5095102-5095169 spi-1: 34
5095598-5095664 spi-1: BE
5096094-5096160 spi-1: FD
5096590-5096656 spi-1: FF
5097095-5097162 spi-1: F6
5097591-5097658 spi-1: FF
5098087-5098153 spi-1: CF
5098583-5098649 spi-1: 3C
5120008-5120074 spi-1: 34
5120504-5120570 spi-1: BE
5121001-5121066 spi-1: FD
5121497-5121564 spi-1: FF
5122042-5122108 spi-1: F6
5122497-5122563 spi-1: FF
5122993-5123059 spi-1: CF
5123490-5123555 spi-1: 3C
5144915-5144982 spi-1: 34
5145411-5145477 spi-1: BE
5145907-5145973 spi-1: FD
5146403-5146469 spi-1: FF
5146908-5146975 spi-1: F6
5147404-5147471 spi-1: FF
5147900-5147966 spi-1: CF
5148396-5148462 spi-1: 3C
5169821-5169887 spi-1: 34
5170317-5170383 spi-1: BE
5170814-5170879 spi-1: FD
5171310-5171377 spi-1: FF
5171814-5171880 spi-1: F6
5172310-5172376 spi-1: FF
5172806-5172872 spi-1: CF
5173303-5173368 spi-1: 3C
5195232-5195298 spi-1: 34
5195720-5195786 spi-1: BE
5196216-5196282 spi-1: FD
5196721-5196788 spi-1: FF
5197217-5197284 spi-1: F6
5197713-5197779 spi-1: FF
5198209-5198275 spi-1: CF
5198714-5198779 spi-1: 3C
5219634-5219700 spi-1: 34
5220130-5220196 spi-1: BE
5220627-5220694 spi-1: FD
5221131-5221197 spi-1: FF
5221627-5221693 spi-1: F6
5222165-5222232 spi-1: FF
5222619-5222685 spi-1: CF
5223116-5223183 spi-1: 3C
5244541-5244608 spi-1: 34
5245037-5245103 spi-1: BE
5245533-5245599 spi-1: FD
5246029-5246095 spi-1: FF
5246534-5246601 spi-1: EF
5247030-5247097 spi-1: FF
5247526-5247592 spi-1: CF
5248022-5248088 spi-1: 3C
5269447-5269513 spi-1: 34
5269944-5270009 spi-1: BE
5270440-5270507 spi-1: FD
5270936-5271003 spi-1: FF
5271440-5271506 spi-1: EF
5271936-5272002 spi-1: FF
5272433-5272498 spi-1: CF
5272929-5272996 spi-1: 3C
5294387-5294453 spi-1: 34
5294850-5294916 spi-1: BE
5295346-5295412 spi-1: FD
5295851-5295916 spi-1: FF
5296347-5296414 spi-1: EF
5296843-5296909 spi-1: FF
5297339-5297405 spi-1: CF
5297835-5297901 spi-1: 3C
5319757-5319822 spi-1: 34
5320253-5320320 spi-1: BE
5320757-5320823 spi-1: FD
5321253-5321319 spi-1: FF
5321749-5321815 spi-1: EF
5322287-5322353 spi-1: FF
5322742-5322809 spi-1: CF
5323246-5323312 spi-1: 3C
5344167-5344233 spi-1: 34
5344663-5344729 spi-1: BE
5345159-5345225 spi-1: FD
5345664-5345731 spi-1: FF
5346160-5346227 spi-1: EF
5346656-5346722 spi-1: FF
5347152-5347218 spi-1: CF
5347656-5347722 spi-1: 3C
5369073-5369139 spi-1: 34
5369570-5369635 spi-1: BE
5370066-5370133 spi-1: FD
5370570-5370636 spi-1: FF
5371066-5371132 spi-1: EF
5371562-5371628 spi-1: FF
5372059-5372124 spi-1: CF
5372563-5372629 spi-1: 3C
5393980-5394046 spi-1: 34
5394509-5394575 spi-1: BE
5394972-5395038 spi-1: FD
5395477-5395544 spi-1: FF
5395973-5396040 spi-1: EF
5396469-5396535 spi-1: FF
5396965-5397031 spi-1: CF
5397470-5397535 spi-1: 3C
5418886-5418952 spi-1: 34
5419383-5419448 spi-1: BE
5419879-5419946 spi-1: FD
5420383-5420449 spi-1: FF
5420879-5420945 spi-1: EF
5421375-5421441 spi-1: FF
5421872-5421937 spi-1: CF
5422417-5422483 spi-1: 3C
5443793-5443859 spi-1: 34
5444289-5444355 spi-1: BE
5444785-5444851 spi-1: FD
5445290-5445357 spi-1: FF
5445786-5445853 spi-1: EF
5446282-5446348 spi-1: FF
5446778-5446844 spi-1: CF
5447283-5447348 spi-1: 3C
5468699-5468765 spi-1: 34
5469237-5469303 spi-1: BE
5469692-5469759 spi-1: FD
5470196-5470262 spi-1: FF
5470692-5470758 spi-1: EF
5471188-5471254 spi-1: FF
5471685-5471752 spi-1: CF
5472189-5472255 spi-1: 3C
5493606-5493672 spi-1: 34
5494102-5494168 spi-1: BE
5494631-5494697 spi-1: FD
5495103-5495170 spi-1: FF
5495599-5495666 spi-1: EF
5496095-5496161 spi-1: FF
5496591-5496657 spi-1: CF
5497096-5497161 spi-1: 3C
5519009-5519076 spi-1: 34
5519505-5519572 spi-1: BE
5520009-5520075 spi-1: FD
5520505-5520571 spi-1: FF
5521002-5521067 spi-1: EF
5521498-5521565 spi-1: FF
5522002-5522068 spi-1: CF
5522523-5522589 spi-1: 3C
5543419-5543485 spi-1: 34
5543915-5543981 spi-1: BE
5544411-5544477 spi-1: FD
5544916-5544983 spi-1: FF
5545412-5545478 spi-1: EF
5545908-5545974 spi-1: FF
5546404-5546470 spi-1: CF
5546909-5546974 spi-1: 3C
5568326-5568391 spi-1: 34
5568822-5568889 spi-1: BE
5569351-5569417 spi-1: FD
5569822-5569888 spi-1: FF
5570318-5570384 spi-1: EF
5570815-5570880 spi-1: FF
5571311-5571378 spi-1: CF
5571815-5571881 spi-1: 3C
5593232-5593298 spi-1: 34
5593728-5593794 spi-1: BE
5594224-5594290 spi-1: FD
5594745-5594811 spi-1: FF
5595225-5595291 spi-1: EF
5595721-5595787 spi-1: FF
5596217-5596283 spi-1: CF
5596722-5596789 spi-1: 3C
